(1788036961.423043) can0 359#0000000000000000 R
(1788036961.433006) can0 361#2D0D080DE600E600 R
(1788036961.523025) can0 356#E6140000E6000000 R
(1788036961.533046) can0 355#6400640000000000 R
(1788036961.563007) can0 600#53414D504C453030 R
(1788036961.873082) can0 400#0000000000001200 R
(1788036961.893124) can0 110#0000000000000021 R
(1788036961.903310) can0 35C#4000000000000000 R
(1788036961.933064) can0 371#0000FC0800000000 R
(1788036961.993224) can0 35E#44593030311CFC08 R
(1788036961.993279) can0 250#FA0070FE0000E600 R
(1788036962.033181) can0 351#48020000FC08E001 R
(1788036962.033228) can0 150#17020000E403E803 R
(1788036962.063068) can0 200#2D0D080DE600E600 R
(1788036962.173181) can0 364#0101000001000000 R
(1788036962.323099) can0 363#F002F00200000000 R
(1788036962.382342) can0 305#0000000000000000 T
(1788036962.382374) can0 307#1234567856494300 T
(1788036962.423084) can0 359#0000000000000000 R
(1788036962.463062) can0 361#2D0D090DE600E600 R
(1788036962.523107) can0 650#53414D504C453031 R
(1788036962.543060) can0 355#6400640000000000 R
(1788036962.553034) can0 356#E6140000E6000000 R
(1788036962.703406) can0 700#02001A0000000000 R
(1788036962.793093) can0 500#F002AA56312E3046 R
(1788036962.893173) can0 110#0000000000000021 R
(1788036962.923137) can0 400#0000000000001200 R
(1788036962.983102) can0 35C#4000000000000000 R
(1788036963.003079) can0 371#0000FC0800000000 R
(1788036963.023089) can0 250#FA0070FE0000E600 R
(1788036963.043165) can0 150#17020000E403E803 R
(1788036963.083188) can0 35E#44593030311CFC08 R
(1788036963.083227) can0 200#2D0D080DE600E600 R
(1788036963.093229) can0 351#48020000FC08E001 R
(1788036963.223124) can0 364#0101000001000000 R
(1788036963.363097) can0 363#F002F00200000000 R
(1788036963.383262) can0 305#0000000000000000 T
(1788036963.383301) can0 307#1234567856494300 T
(1788036963.423119) can0 359#0000000000000000 R
(1788036963.493123) can0 361#2D0D080DE600E600 R
(1788036963.553132) can0 355#6400640000000000 R
(1788036963.573119) can0 356#E6140000E6000000 R
(1788036963.673205) can0 600#53414D504C453030 R
(1788036963.893198) can0 110#0000000000000021 R
(1788036963.963169) can0 400#0000000000001200 R
(1788036964.053176) can0 150#17020000E403E803 R
(1788036964.063246) can0 35C#4000000000000000 R
(1788036964.063285) can0 250#FA0070FE0000E600 R
(1788036964.073120) can0 371#0000FC0800000000 R
(1788036964.103410) can0 200#2D0D080DE600E600 R
(1788036964.153236) can0 351#48020000FC08E001 R
(1788036964.183170) can0 35E#44593030311CFC08 R
(1788036964.273163) can0 364#0101000001000000 R
(1788036964.381576) can0 305#0000000000000000 T
(1788036964.381619) can0 307#1234567856494300 T
(1788036964.403272) can0 363#F002F00200000000 R
(1788036964.423170) can0 359#0000000000000000 R
(1788036964.523160) can0 361#2D0D080DE600E600 R
(1788036964.563154) can0 355#6400640000000000 R
(1788036964.593136) can0 356#E6140000E6000000 R
(1788036964.643164) can0 650#53414D504C453031 R
(1788036964.893264) can0 110#0000000000000021 R
(1788036964.903422) can0 500#F002AA56312E3046 R
(1788036965.003216) can0 400#0000000000001200 R
(1788036965.063184) can0 150#17020000E403E803 R
(1788036965.093256) can0 250#FA0070FE0000E600 R
(1788036965.123412) can0 200#2D0D080DE600E600 R
(1788036965.143234) can0 371#0000FC0800000000 R
(1788036965.153229) can0 35C#4000000000000000 R
(1788036965.213215) can0 351#48020000FC08E001 R
(1788036965.273168) can0 35E#44593030311CFC08 R
(1788036965.323234) can0 364#0101000001000000 R
(1788036965.382530) can0 305#0000000000000000 T
(1788036965.382566) can0 307#1234567856494300 T
(1788036965.423179) can0 359#0000000000000000 R
(1788036965.453207) can0 363#F002F00200000000 R
(1788036965.553208) can0 361#2D0D090DE600E600 R
(1788036965.573203) can0 355#6400640000000000 R
(1788036965.613195) can0 356#E6140000E6000000 R
(1788036965.783212) can0 600#53414D504C453030 R
(1788036965.893277) can0 110#0000000000000021 R
(1788036965.913207) can0 550#2E18000033000000 R
(1788036966.043266) can0 400#0000000000001200 R
(1788036966.073204) can0 150#17020000E403E803 R
(1788036966.123524) can0 250#FA0070FE0000E600 R
(1788036966.133353) can0 750#0000000000000000 R
(1788036966.143351) can0 200#2C0D090DE600E600 R
(1788036966.213256) can0 371#0000FC0800000000 R
(1788036966.233245) can0 35C#4000000000000000 R
(1788036966.273211) can0 351#48020000FC08E001 R
(1788036966.363212) can0 35E#44593030311CFC08 R
(1788036966.373225) can0 364#0101000001000000 R
(1788036966.383416) can0 305#0000000000000000 T
(1788036966.383448) can0 307#1234567856494300 T
(1788036966.423250) can0 359#0000000000000000 R
(1788036966.493209) can0 363#F002F00200000000 R
(1788036966.583265) can0 355#6400640000000000 R
(1788036966.593217) can0 361#2C0D090DE600E600 R
(1788036966.633244) can0 356#E6140000E6000000 R
(1788036966.773255) can0 650#53414D504C453031 R
(1788036966.893317) can0 110#0000000000000021 R
(1788036967.003228) can0 500#F002AA56312E3046 R
(1788036967.083284) can0 150#17020000E403E803 R
(1788036967.093336) can0 400#0000000000001200 R
(1788036967.153334) can0 250#FA0070FE0000E600 R
(1788036967.163400) can0 200#2C0D090DE600E600 R
(1788036967.283255) can0 371#0000FC0800000000 R
(1788036967.313259) can0 35C#4000000000000000 R
(1788036967.333263) can0 351#48020000FC08E001 R
(1788036967.383357) can0 305#0000000000000000 T
(1788036967.383391) can0 307#1234567856494300 T
(1788036967.423271) can0 359#0000000000000000 R
(1788036967.433279) can0 364#0101000001000000 R
(1788036967.473250) can0 35E#44593030311CFC08 R
(1788036967.533293) can0 363#F002F00200000000 R
(1788036967.593268) can0 355#6400640000000000 R
(1788036967.623282) can0 361#2C0D080DE600E600 R
(1788036967.653266) can0 356#E6140000E6000000 R
(1788036967.893356) can0 110#0000000000000021 R
(1788036967.913292) can0 600#53414D504C453030 R
(1788036968.053333) can0 700#02001A0000000000 R
(1788036968.093321) can0 150#17020000E403E803 R
(1788036968.133474) can0 400#0000000000001200 R
(1788036968.183379) can0 200#2D0D080DE600E600 R
(1788036968.193337) can0 250#FA0070FE0000E600 R
(1788036968.353327) can0 371#0000FC0800000000 R
(1788036968.383499) can0 305#0000000000000000 T
(1788036968.383534) can0 307#1234567856494300 T
(1788036968.393286) can0 351#48020000FC08E001 R
(1788036968.403419) can0 35C#4000000000000000 R
(1788036968.423323) can0 359#0000000000000000 R
(1788036968.483307) can0 364#0101000001000000 R
(1788036968.563299) can0 35E#44593030311CFC08 R
(1788036968.573301) can0 363#F002F00200000000 R
(1788036968.603318) can0 355#6400640000000000 R
(1788036968.653294) can0 361#2D0D080DE600E600 R
(1788036968.673277) can0 356#E6140000E6000000 R
(1788036968.893412) can0 110#0000000000000021 R
(1788036968.903564) can0 650#53414D504C453031 R
(1788036969.103485) can0 150#17020000E403E803 R
(1788036969.113425) can0 500#F002AA56312E3046 R
(1788036969.173399) can0 400#0000000000001200 R
(1788036969.203535) can0 200#2D0D080DE600E600 R
(1788036969.223378) can0 250#FA0070FE0000E600 R
(1788036969.389987) can0 305#0000000000000000 T
(1788036969.390027) can0 307#1234567856494300 T
(1788036969.423391) can0 359#0000000000000000 R
(1788036969.433356) can0 371#0000FC0800000000 R
(1788036969.463351) can0 351#48020000FC08E001 R
(1788036969.493341) can0 35C#4000000000000000 R
(1788036969.533368) can0 364#0101000001000000 R
(1788036969.613378) can0 355#6400640000000000 R
(1788036969.623354) can0 363#F002F00200000000 R
(1788036969.673326) can0 35E#44593030311CFC08 R
(1788036969.683361) can0 361#2D0D080DE600E600 R
(1788036969.693373) can0 356#E6140000E6000000 R
(1788036969.893441) can0 110#0000000000000021 R
(1788036970.023413) can0 600#53414D504C453030 R
(1788036970.113448) can0 150#17020000E403E803 R
(1788036970.213460) can0 400#0000000000001200 R
(1788036970.223467) can0 200#2D0D080DE600E600 R
(1788036970.254417) can0 250#FA0070FE0000E600 R
(1788036970.382764) can0 305#0000000000000000 T
(1788036970.382805) can0 307#1234567856494300 T
(1788036970.423406) can0 359#0000000000000000 R
(1788036970.503509) can0 371#0000FC0800000000 R
(1788036970.523407) can0 351#48020000FC08E001 R
(1788036970.573399) can0 35C#4000000000000000 R
(1788036970.583381) can0 364#0101000001000000 R
(1788036970.623377) can0 355#6400640000000000 R
(1788036970.663365) can0 363#F002F00200000000 R
(1788036970.713439) can0 356#E6140000E6000000 R
(1788036970.723425) can0 361#2D0D080DE600E600 R
(1788036970.783397) can0 35E#44593030311CFC08 R
(1788036970.893472) can0 110#0000000000000021 R
(1788036971.023447) can0 650#53414D504C453031 R
(1788036971.123498) can0 150#17020000E403E803 R
(1788036971.193511) can0 550#2E18000033000000 R
(1788036971.213449) can0 500#F002AA56312E3046 R
(1788036971.243447) can0 200#2C0D090DE600E600 R
(1788036971.263448) can0 400#0000000000001200 R
(1788036971.283421) can0 250#FA0070FE0000E600 R
(1788036971.382626) can0 305#0000000000000000 T
(1788036971.382667) can0 307#1234567856494300 T
(1788036971.423428) can0 359#0000000000000000 R
(1788036971.493558) can0 750#0000000000000000 R
(1788036971.573446) can0 371#0000FC0800000000 R
(1788036971.583420) can0 351#48020000FC08E001 R
(1788036971.633455) can0 355#6400640000000000 R
(1788036971.643432) can0 364#0101000001000000 R
(1788036971.673426) can0 35C#4000000000000000 R
(1788036971.703843) can0 363#F002F00200000000 R
(1788036971.733470) can0 356#E6140000E6000000 R
(1788036971.753504) can0 361#2C0D090DE600E600 R
(1788036971.873440) can0 35E#44593030311CFC08 R
(1788036971.893503) can0 110#0000000000000021 R
(1788036972.133686) can0 150#17020000E403E803 R
(1788036972.153531) can0 600#53414D504C453030 R
(1788036972.263472) can0 200#2C0D080DE600E600 R
(1788036972.303596) can0 400#0000000000001200 R
(1788036972.313446) can0 250#FA0070FE0000E600 R
(1788036972.382687) can0 305#0000000000000000 T
(1788036972.382728) can0 307#1234567856494300 T
(1788036972.423472) can0 359#0000000000000000 R
(1788036972.643488) can0 355#6400640000000000 R
(1788036972.653487) can0 351#48020000FC08E001 R
(1788036972.663455) can0 371#0000FC0800000000 R
(1788036972.693510) can0 364#0101000001000000 R
(1788036972.743522) can0 363#F002F00200000000 R
(1788036972.753472) can0 356#E6140000E6000000 R
(1788036972.773499) can0 35C#4000000000000000 R
(1788036972.783450) can0 361#2C0D080DE600E600 R
(1788036972.893559) can0 110#0000000000000021 R
(1788036972.963548) can0 35E#44593030311CFC08 R
(1788036973.143771) can0 150#17020000E403E803 R
(1788036973.163571) can0 650#53414D504C453031 R
(1788036973.283479) can0 200#2C0D080DE600E600 R
(1788036973.323541) can0 500#F002AA56312E3046 R
(1788036973.343524) can0 250#FA0070FE0000E600 R
(1788036973.353570) can0 400#0000000000001200 R
(1788036973.383829) can0 305#0000000000000000 T
(1788036973.383872) can0 307#1234567856494300 T
(1788036973.423600) can0 359#0000000000000000 R
(1788036973.433565) can0 700#02001A0000000000 R
(1788036973.653552) can0 355#6400640000000000 R
(1788036973.713534) can0 351#48020000FC08E001 R
(1788036973.733541) can0 371#0000FC0800000000 R
(1788036973.743576) can0 364#0101000001000000 R
(1788036973.773599) can0 356#E6140000E6000000 R
(1788036973.793539) can0 363#F002F00200000000 R
(1788036973.813500) can0 361#2C0D080DE600E600 R
(1788036973.863534) can0 35C#4000000000000000 R
(1788036973.893590) can0 110#0000000000000021 R
(1788036974.053552) can0 35E#44593030311CFC08 R
(1788036974.153617) can0 150#17020000E403E803 R
(1788036974.263545) can0 600#53414D504C453030 R
(1788036974.303640) can0 200#2D0D080DE600E600 R
(1788036974.373547) can0 250#FA0070FE0000E600 R
(1788036974.383632) can0 305#0000000000000000 T
(1788036974.383666) can0 307#1234567856494300 T
(1788036974.393572) can0 400#0000000000001200 R
(1788036974.423577) can0 359#0000000000000000 R
(1788036974.663573) can0 355#6400640000000000 R
(1788036974.773583) can0 351#48020000FC08E001 R
(1788036974.793549) can0 356#E6140000E6000000 R
(1788036974.803551) can0 364#0101000001000000 R
(1788036974.823588) can0 371#0000FC0800000000 R
(1788036974.833545) can0 363#F002F00200000000 R
(1788036974.843567) can0 361#2D0D080DE600E600 R
(1788036974.893662) can0 110#0000000000000021 R
(1788036974.943604) can0 35C#4000000000000000 R
(1788036975.143901) can0 35E#44593030311CFC08 R
(1788036975.163671) can0 150#17020000E403E803 R
(1788036975.283598) can0 650#53414D504C453031 R
(1788036975.323583) can0 200#2D0D080DE600E600 R
(1788036975.382885) can0 305#0000000000000000 T
(1788036975.382924) can0 307#1234567856494300 T
(1788036975.403656) can0 250#FA0070FE0000E600 R
(1788036975.423592) can0 359#0000000000000000 R
(1788036975.433605) can0 400#0000000000001200 R
(1788036975.443563) can0 500#F002AA56312E3046 R
(1788036975.673584) can0 355#6400640000000000 R
(1788036975.813605) can0 356#E6140000E6000000 R
(1788036975.843613) can0 351#48020000FC08E001 R
(1788036975.853611) can0 364#0101000001000000 R
(1788036975.873597) can0 361#2D0D080DE600E600 R
(1788036975.883581) can0 363#F002F00200000000 R
(1788036975.893671) can0 110#0000000000000021 R
(1788036975.913585) can0 371#0000FC0800000000 R
(1788036976.023630) can0 35C#4000000000000000 R
(1788036976.173685) can0 150#17020000E403E803 R
(1788036976.233635) can0 35E#44593030311CFC08 R
(1788036976.343637) can0 200#2D0D090DE600E600 R
(1788036976.383681) can0 600#53414D504C453030 R
(1788036976.383714) can0 305#0000000000000000 T
(1788036976.384068) can0 307#1234567856494300 T
(1788036976.423688) can0 359#0000000000000000 R
(1788036976.433642) can0 250#FA0070FE0000E600 R
(1788036976.473667) can0 400#0000000000001200 R
(1788036976.503713) can0 550#2E18000033000000 R
(1788036976.683618) can0 355#6400640000000000 R
(1788036976.833779) can0 356#E6140000E6000000 R
(1788036976.833825) can0 750#0000000000000000 R
(1788036976.893727) can0 110#0000000000000021 R
(1788036976.903855) can0 361#2D0D090DE600E600 R
(1788036976.913622) can0 364#0101000001000000 R
(1788036976.923662) can0 363#F002F00200000000 R
(1788036976.933670) can0 351#48020000FC08E001 R
(1788036976.983662) can0 371#0000FC0800000000 R
(1788036977.103767) can0 35C#4000000000000000 R
(1788036977.183709) can0 150#17020000E403E803 R
(1788036977.323697) can0 35E#44593030311CFC08 R
(1788036977.363673) can0 200#2D0D090DE600E600 R
(1788036977.383820) can0 305#0000000000000000 T
(1788036977.383855) can0 307#1234567856494300 T
(1788036977.423799) can0 359#0000000000000000 R
(1788036977.423845) can0 650#53414D504C453031 R
(1788036977.463691) can0 250#FA0070FE0000E600 R
(1788036977.513692) can0 400#0000000000001200 R
(1788036977.543695) can0 500#F002AA56312E3046 R
(1788036977.693692) can0 355#6400640000000000 R
(1788036977.853715) can0 356#E6140000E6000000 R
(1788036977.893783) can0 110#0000000000000021 R
(1788036977.933693) can0 361#2D0D090DE600E600 R
(1788036977.963687) can0 363#F002F00200000000 R
(1788036977.973684) can0 364#0101000001000000 R
(1788036977.993682) can0 351#48020000FC08E001 R
(1788036978.053694) can0 371#0000FC0800000000 R
(1788036978.183774) can0 35C#4000000000000000 R
(1788036978.193765) can0 150#17020000E403E803 R
(1788036978.383742) can0 200#2C0D080DE600E600 R
(1788036978.384727) can0 305#0000000000000000 T
(1788036978.384756) can0 307#1234567856494300 T
(1788036978.413693) can0 35E#44593030311CFC08 R
(1788036978.423719) can0 359#0000000000000000 R
(1788036978.493700) can0 250#FA0070FE0000E600 R
(1788036978.513674) can0 600#53414D504C453030 R
(1788036978.553770) can0 400#0000000000001200 R
(1788036978.703806) can0 355#6400640000000000 R
(1788036978.763755) can0 700#02001A0000000000 R
(1788036978.873739) can0 356#E6140000E6000000 R
(1788036978.893830) can0 110#0000000000000021 R
(1788036978.963730) can0 361#2C0D080DE600E600 R
(1788036979.003709) can0 363#F002F00200000000 R
(1788036979.023751) can0 364#0101000001000000 R
(1788036979.053735) can0 351#48020000FC08E001 R
(1788036979.123911) can0 371#0000FC0800000000 R
(1788036979.203801) can0 150#17020000E403E803 R
(1788036979.263764) can0 35C#4000000000000000 R
(1788036979.382167) can0 305#0000000000000000 T
(1788036979.382207) can0 307#1234567856494300 T
(1788036979.404070) can0 200#2C0D080DE600E600 R
(1788036979.423784) can0 359#0000000000000000 R
(1788036979.513738) can0 35E#44593030311CFC08 R
(1788036979.523762) can0 250#FA0070FE0000E600 R
(1788036979.553739) can0 650#53414D504C453031 R
(1788036979.593795) can0 400#0000000000001200 R
(1788036979.643764) can0 500#F002AA56312E3046 R
(1788036979.713740) can0 355#6400640000000000 R
(1788036979.893859) can0 356#E6140000E6000000 R
(1788036979.893934) can0 110#0000000000000021 R
(1788036979.993822) can0 361#2C0D080DE600E600 R
(1788036980.043817) can0 363#F002F00200000000 R
(1788036980.073766) can0 364#0101000001000000 R
(1788036980.113927) can0 351#48020000FC08E001 R
(1788036980.193825) can0 371#0000FC0800000000 R
(1788036980.213803) can0 150#17020000E403E803 R
(1788036980.343793) can0 35C#4000000000000000 R
(1788036980.383890) can0 305#0000000000000000 T
(1788036980.383927) can0 307#1234567856494300 T
(1788036980.423919) can0 359#0000000000000000 R
(1788036980.423965) can0 200#2D0D080DE600E600 R
(1788036980.553834) can0 250#FA0070FE0000E600 R
(1788036980.603798) can0 35E#44593030311CFC08 R
(1788036980.623782) can0 600#53414D504C453030 R
(1788036980.633800) can0 400#0000000000001200 R
(1788036980.723794) can0 355#6400640000000000 R
(1788036980.893879) can0 110#0000000000000021 R
(1788036980.913785) can0 356#E6140000E6000000 R
(1788036981.023875) can0 361#2D0D080DE600E600 R
(1788036981.083799) can0 363#F002F00200000000 R
(1788036981.124237) can0 364#0101000001000000 R
(1788036981.173906) can0 351#48020000FC08E001 R
(1788036981.223872) can0 150#17020000E403E803 R
(1788036981.263822) can0 371#0000FC0800000000 R
(1788036981.382203) can0 305#0000000000000000 T
(1788036981.382242) can0 307#1234567856494300 T
(1788036981.423829) can0 359#0000000000000000 R
(1788036981.433825) can0 35C#4000000000000000 R
(1788036981.443829) can0 200#2D0D080DE600E600 R
(1788036981.583851) can0 250#FA0070FE0000E600 R
(1788036981.673858) can0 400#0000000000001200 R
(1788036981.683816) can0 650#53414D504C453031 R
(1788036981.693803) can0 35E#44593030311CFC08 R
(1788036981.733837) can0 355#6400640000000000 R
(1788036981.743817) can0 500#F002AA56312E3046 R
(1788036981.783835) can0 550#2E18000033000000 R
(1788036981.893931) can0 110#0000000000000021 R
(1788036981.933852) can0 356#E6140000E6000000 R
(1788036982.054048) can0 361#2D0D080DE600E600 R
(1788036982.124014) can0 363#F002F00200000000 R
(1788036982.173900) can0 364#0101000001000000 R
(1788036982.193954) can0 750#0000000000000000 R
(1788036982.233921) can0 351#48020000FC08E001 R
(1788036982.233970) can0 150#17020000E403E803 R
(1788036982.333869) can0 371#0000FC0800000000 R
(1788036982.383971) can0 305#0000000000000000 T
(1788036982.384006) can0 307#1234567856494300 T
(1788036982.423891) can0 359#0000000000000000 R
(1788036982.463865) can0 200#2D0D080DE600E600 R
(1788036982.513883) can0 35C#4000000000000000 R
(1788036982.613922) can0 250#FA0070FE0000E600 R
(1788036982.713918) can0 400#0000000000001200 R
(1788036982.743888) can0 355#6400640000000000 R
(1788036982.753876) can0 600#53414D504C453030 R
(1788036982.793859) can0 35E#44593030311CFC08 R
(1788036982.893943) can0 110#0000000000000021 R
(1788036982.953901) can0 356#E6140000E6000000 R
(1788036983.083895) can0 361#2D0D080DE600E600 R
(1788036983.164046) can0 363#F002F00200000000 R
(1788036983.223918) can0 364#0101000001000000 R
(1788036983.243888) can0 150#17020000E403E803 R
(1788036983.293897) can0 351#48020000FC08E001 R
(1788036983.383127) can0 305#0000000000000000 T
(1788036983.383167) can0 307#1234567856494300 T
(1788036983.403999) can0 371#0000FC0800000000 R
(1788036983.423930) can0 359#0000000000000000 R
(1788036983.483892) can0 200#2D0D080DE600E600 R
(1788036983.593926) can0 35C#4000000000000000 R
(1788036983.643908) can0 250#FA0070FE0000E600 R
(1788036983.754064) can0 355#6400640000000000 R
(1788036983.754110) can0 400#0000000000001200 R
(1788036983.813900) can0 650#53414D504C453031 R
(1788036983.843940) can0 500#F002AA56312E3046 R
(1788036983.883928) can0 35E#44593030311CFC08 R
(1788036983.893982) can0 110#0000000000000021 R
(1788036983.973930) can0 356#E6140000E6000000 R
(1788036984.114056) can0 361#2D0D080DE600E600 R
(1788036984.114104) can0 700#02001A0000000000 R
(1788036984.204049) can0 363#F002F00200000000 R
(1788036984.253948) can0 150#17020000E403E803 R
(1788036984.273938) can0 364#0101000001000000 R
(1788036984.353963) can0 351#48020000FC08E001 R
(1788036984.384042) can0 305#0000000000000000 T
(1788036984.384079) can0 307#1234567856494300 T
(1788036984.424002) can0 359#0000000000000000 R
(1788036984.483940) can0 371#0000FC0800000000 R
(1788036984.504015) can0 200#2D0D090DE600E600 R
(1788036984.674076) can0 35C#4000000000000000 R
(1788036984.674123) can0 250#FA0070FE0000E600 R
(1788036984.764006) can0 355#6400640000000000 R
(1788036984.794012) can0 400#0000000000001200 R
(1788036984.863974) can0 600#53414D504C453030 R
(1788036984.894044) can0 110#0000000000000021 R
(1788036984.973984) can0 35E#44593030311CFC08 R
(1788036984.993985) can0 356#E6140000E6000000 R
(1788036985.144096) can0 361#2D0D090DE600E600 R
(1788036985.244027) can0 363#F002F00200000000 R
(1788036985.263998) can0 150#17020000E403E803 R
(1788036985.324035) can0 364#0101000001000000 R
(1788036985.383292) can0 305#0000000000000000 T
(1788036985.383329) can0 307#1234567856494300 T
(1788036985.413955) can0 351#48020000FC08E001 R
(1788036985.423980) can0 359#0000000000000000 R
(1788036985.523996) can0 200#2D0D090DE600E600 R
(1788036985.553992) can0 371#0000FC0800000000 R
(1788036985.704112) can0 250#FA0070FE0000E600 R
(1788036985.754181) can0 35C#4000000000000000 R
(1788036985.774055) can0 355#6400640000000000 R
(1788036985.834063) can0 400#0000000000001200 R
(1788036985.894103) can0 110#0000000000000021 R
(1788036985.944010) can0 650#53414D504C453031 R
(1788036985.954015) can0 500#F002AA56312E3046 R
(1788036986.014038) can0 356#E6140000E6000000 R
(1788036986.073999) can0 35E#44593030311CFC08 R
(1788036986.174115) can0 361#2D0D090DE600E600 R
(1788036986.274059) can0 150#17020000E403E803 R
(1788036986.284023) can0 363#F002F00200000000 R
(1788036986.374032) can0 364#0101000001000000 R
(1788036986.384128) can0 305#0000000000000000 T
(1788036986.384160) can0 307#1234567856494300 T
(1788036986.424108) can0 359#0000000000000000 R
(1788036986.484020) can0 351#48020000FC08E001 R
(1788036986.544051) can0 200#2D0D090DE600E600 R
(1788036986.624044) can0 371#0000FC0800000000 R
(1788036986.734049) can0 250#FA0070FE0000E600 R
(1788036986.784062) can0 355#6400640000000000 R
(1788036986.844157) can0 35C#4000000000000000 R
(1788036986.874083) can0 400#0000000000001200 R
(1788036986.894126) can0 110#0000000000000021 R
(1788036986.984055) can0 600#53414D504C453030 R
(1788036987.034056) can0 356#E6140000E6000000 R
(1788036987.064054) can0 550#2E18000033000000 R
(1788036987.164233) can0 35E#44593030311CFC08 R
(1788036987.204243) can0 361#2D0D090DE600E600 R
(1788036987.284091) can0 150#17020000E403E803 R
(1788036987.324118) can0 363#F002F00200000000 R
(1788036987.383491) can0 305#0000000000000000 T
(1788036987.383529) can0 307#1234567856494300 T
(1788036987.424070) can0 359#0000000000000000 R
(1788036987.434085) can0 364#0101000001000000 R
(1788036987.544193) can0 351#48020000FC08E001 R
(1788036987.544241) can0 750#0000000000000000 R
(1788036987.564075) can0 200#2C0D080DE600E600 R
(1788036987.694069) can0 371#0000FC0800000000 R
(1788036987.764135) can0 250#FA0070FE0000E600 R
(1788036987.794118) can0 355#6400640000000000 R
(1788036987.894400) can0 110#0000000000000021 R
(1788036987.924230) can0 35C#4000000000000000 R
(1788036987.924277) can0 400#0000000000001200 R
(1788036988.054147) can0 356#E6140000E6000000 R
(1788036988.054190) can0 500#F002AA56312E3046 R
(1788036988.084073) can0 650#53414D504C453031 R
(1788036988.235102) can0 361#2C0D080DE600E600 R
(1788036988.264189) can0 35E#44593030311CFC08 R
(1788036988.294154) can0 150#17020000E403E803 R
(1788036988.364094) can0 363#F002F00200000000 R
(1788036988.384179) can0 305#0000000000000000 T
(1788036988.384213) can0 307#1234567856494300 T
(1788036988.424141) can0 359#0000000000000000 R
(1788036988.484136) can0 364#0101000001000000 R
(1788036988.584116) can0 200#2D0D080DE600E600 R
(1788036988.604106) can0 351#48020000FC08E001 R
(1788036988.764205) can0 371#0000FC0800000000 R
(1788036988.794166) can0 250#FA0070FE0000E600 R
(1788036988.804155) can0 355#6400640000000000 R
(1788036988.894190) can0 110#0000000000000021 R
(1788036988.964175) can0 400#0000000000001200 R
(1788036989.004146) can0 35C#4000000000000000 R
(1788036989.074109) can0 356#E6140000E6000000 R
(1788036989.104212) can0 600#53414D504C453030 R
(1788036989.264140) can0 361#2D0D080DE600E600 R
(1788036989.304307) can0 150#17020000E403E803 R
(1788036989.354127) can0 35E#44593030311CFC08 R
(1788036989.384199) can0 305#0000000000000000 T
(1788036989.384238) can0 307#1234567856494300 T
(1788036989.404239) can0 363#F002F00200000000 R
(1788036989.424162) can0 359#0000000000000000 R
(1788036989.454165) can0 700#02001A0000000000 R
(1788036989.534183) can0 364#0101000001000000 R
(1788036989.604173) can0 200#2D0D080DE600E600 R
(1788036989.664142) can0 351#48020000FC08E001 R
(1788036989.814176) can0 355#6400640000000000 R
(1788036989.824185) can0 250#FA0070FE0000E600 R
(1788036989.844178) can0 371#0000FC0800000000 R
(1788036989.894267) can0 110#0000000000000021 R
(1788036990.004216) can0 400#0000000000001200 R
(1788036990.084178) can0 35C#4000000000000000 R
(1788036990.094220) can0 356#E6140000E6000000 R
(1788036990.154247) can0 500#F002AA56312E3046 R
(1788036990.204284) can0 650#53414D504C453031 R
(1788036990.294173) can0 361#2D0D080DE600E600 R
(1788036990.314189) can0 150#17020000E403E803 R
(1788036990.383497) can0 305#0000000000000000 T
(1788036990.383543) can0 307#1234567856494300 T
(1788036990.424231) can0 359#0000000000000000 R
(1788036990.454179) can0 363#F002F00200000000 R
(1788036990.464164) can0 35E#44593030311CFC08 R
(1788036990.584229) can0 364#0101000001000000 R
(1788036990.624267) can0 200#2C0D090DE600E600 R
(1788036990.724224) can0 351#48020000FC08E001 R
(1788036990.824221) can0 355#6400640000000000 R
(1788036990.854405) can0 250#FA0070FE0000E600 R
(1788036990.894272) can0 110#0000000000000021 R
(1788036990.914204) can0 371#0000FC0800000000 R
(1788036991.044241) can0 400#0000000000001200 R
(1788036991.114223) can0 356#E6140000E6000000 R
(1788036991.174270) can0 35C#4000000000000000 R
(1788036991.214276) can0 600#53414D504C453030 R
(1788036991.324318) can0 361#2C0D090DE600E600 R
(1788036991.324390) can0 150#17020000E403E803 R
(1788036991.383659) can0 305#0000000000000000 T
(1788036991.383706) can0 307#1234567856494300 T
(1788036991.424230) can0 359#0000000000000000 R
(1788036991.494216) can0 363#F002F00200000000 R
(1788036991.554273) can0 35E#44593030311CFC08 R
(1788036991.634236) can0 364#0101000001000000 R
(1788036991.644200) can0 200#2D0D080DE600E600 R
(1788036991.784239) can0 351#48020000FC08E001 R
(1788036991.834253) can0 355#6400640000000000 R
(1788036991.884274) can0 250#FA0070FE0000E600 R
(1788036991.894289) can0 110#0000000000000021 R
(1788036991.984259) can0 371#0000FC0800000000 R
(1788036992.084306) can0 400#0000000000001200 R
(1788036992.134449) can0 356#E6140000E6000000 R
(1788036992.254398) can0 35C#4000000000000000 R
(1788036992.254445) can0 500#F002AA56312E3046 R
(1788036992.324288) can0 650#53414D504C453031 R
(1788036992.334253) can0 150#17020000E403E803 R
(1788036992.354513) can0 361#2D0D080DE600E600 R
(1788036992.354623) can0 550#2E18000033000000 R
(1788036992.387494) can0 305#0000000000000000 T
(1788036992.387541) can0 307#1234567856494300 T
(1788036992.424285) can0 359#0000000000000000 R
(1788036992.534297) can0 363#F002F00200000000 R
(1788036992.644244) can0 35E#44593030311CFC08 R
(1788036992.664275) can0 200#2D0D080DE600E600 R
(1788036992.684258) can0 364#0101000001000000 R
(1788036992.844291) can0 355#6400640000000000 R
(1788036992.854494) can0 351#48020000FC08E001 R
(1788036992.894349) can0 110#0000000000000021 R
(1788036992.914321) can0 750#0000000000000000 R
(1788036992.924270) can0 250#FA0070FE0000E600 R
(1788036993.054303) can0 371#0000FC0800000000 R
(1788036993.124385) can0 400#0000000000001200 R
(1788036993.154541) can0 356#E6140000E6000000 R
(1788036993.334437) can0 35C#4000000000000000 R
(1788036993.334492) can0 600#53414D504C453030 R
(1788036993.344299) can0 150#17020000E403E803 R
(1788036993.384352) can0 361#2D0D080DE600E600 R
(1788036993.384383) can0 305#0000000000000000 T
(1788036993.384722) can0 307#1234567856494300 T
(1788036993.424323) can0 359#0000000000000000 R
(1788036993.574323) can0 363#F002F00200000000 R
(1788036993.684317) can0 200#2C0D080DE600E600 R
(1788036993.734313) can0 364#0101000001000000 R
(1788036993.744303) can0 35E#44593030311CFC08 R
(1788036993.854351) can0 355#6400640000000000 R
(1788036993.894383) can0 110#0000000000000021 R
(1788036993.914316) can0 351#48020000FC08E001 R
(1788036993.954469) can0 250#FA0070FE0000E600 R
(1788036994.124921) can0 371#0000FC0800000000 R
(1788036994.164483) can0 400#0000000000001200 R
(1788036994.174503) can0 356#E6140000E6000000 R
(1788036994.354357) can0 150#17020000E403E803 R
(1788036994.364333) can0 500#F002AA56312E3046 R
(1788036994.384422) can0 305#0000000000000000 T
(1788036994.384452) can0 307#1234567856494300 T
(1788036994.414321) can0 361#2D0D090DE600E600 R
(1788036994.424312) can0 359#0000000000000000 R
(1788036994.434367) can0 35C#4000000000000000 R
(1788036994.464421) can0 650#53414D504C453031 R
(1788036994.614366) can0 363#F002F00200000000 R
(1788036994.704422) can0 200#2D0D090DE600E600 R
(1788036994.784352) can0 364#0101000001000000 R
(1788036994.804366) can0 700#02001A0000000000 R
(1788036994.834354) can0 35E#44593030311CFC08 R
(1788036994.864436) can0 355#6400640000000000 R
(1788036994.894405) can0 110#0000000000000021 R
(1788036994.974403) can0 351#48020000FC08E001 R
(1788036994.984395) can0 250#FA0070FE0000E600 R
(1788036995.194468) can0 356#E6140000E6000000 R
(1788036995.204500) can0 371#0000FC0800000000 R
(1788036995.204555) can0 400#0000000000001200 R
(1788036995.364398) can0 150#17020000E403E803 R
(1788036995.384510) can0 305#0000000000000000 T
(1788036995.384556) can0 307#1234567856494300 T
(1788036995.424391) can0 359#0000000000000000 R
(1788036995.454538) can0 361#2D0D080DE600E600 R
(1788036995.454656) can0 600#53414D504C453030 R
(1788036995.514401) can0 35C#4000000000000000 R
(1788036995.654379) can0 363#F002F00200000000 R
(1788036995.724413) can0 200#2D0D080DE600E600 R
(1788036995.834422) can0 364#0101000001000000 R
(1788036995.874419) can0 355#6400640000000000 R
(1788036995.894443) can0 110#0000000000000021 R
(1788036995.934413) can0 35E#44593030311CFC08 R
(1788036996.014435) can0 250#FA0070FE0000E600 R
(1788036996.034427) can0 351#48020000FC08E001 R
(1788036996.214501) can0 356#E6140000E6000000 R
(1788036996.244480) can0 400#0000000000001200 R
(1788036996.274408) can0 371#0000FC0800000000 R
(1788036996.374426) can0 150#17020000E403E803 R
(1788036996.384601) can0 305#0000000000000000 T
(1788036996.384637) can0 307#1234567856494300 T
(1788036996.424427) can0 359#0000000000000000 R
(1788036996.464495) can0 500#F002AA56312E3046 R
(1788036996.484479) can0 361#2D0D080DE600E600 R
(1788036996.584456) can0 650#53414D504C453031 R
(1788036996.594433) can0 35C#4000000000000000 R
(1788036996.694416) can0 363#F002F00200000000 R
(1788036996.744467) can0 200#2D0D080DE600E600 R
(1788036996.884469) can0 355#6400640000000000 R
(1788036996.894555) can0 364#0101000001000000 R
(1788036996.894593) can0 110#0000000000000021 R
(1788036997.024451) can0 35E#44593030311CFC08 R
(1788036997.044458) can0 250#FA0070FE0000E600 R
(1788036997.094452) can0 351#48020000FC08E001 R
(1788036997.234484) can0 356#E6140000E6000000 R
(1788036997.284499) can0 400#0000000000001200 R
(1788036997.344479) can0 371#0000FC0800000000 R
(1788036997.384522) can0 150#17020000E403E803 R
(1788036997.384556) can0 305#0000000000000000 T
(1788036997.384929) can0 307#1234567856494300 T
(1788036997.424474) can0 359#0000000000000000 R
(1788036997.514461) can0 361#2D0D080DE600E600 R
(1788036997.564489) can0 600#53414D504C453030 R
(1788036997.624481) can0 550#2E18000033000000 R
(1788036997.674477) can0 35C#4000000000000000 R
(1788036997.734482) can0 363#F002F00200000000 R
(1788036997.764473) can0 200#2D0D080DE600E600 R
(1788036997.894590) can0 355#6400640000000000 R
(1788036997.894635) can0 110#0000000000000021 R
(1788036997.944589) can0 364#0101000001000000 R
(1788036998.074543) can0 250#FA0070FE0000E600 R
(1788036998.114514) can0 35E#44593030311CFC08 R
(1788036998.154696) can0 351#48020000FC08E001 R
(1788036998.255542) can0 356#E6140000E6000000 R
(1788036998.264510) can0 750#0000000000000000 R
(1788036998.324546) can0 400#0000000000001200 R
(1788036998.383840) can0 305#0000000000000000 T
(1788036998.383880) can0 307#1234567856494300 T
(1788036998.394496) can0 150#17020000E403E803 R
(1788036998.414477) can0 371#0000FC0800000000 R
(1788036998.424500) can0 359#0000000000000000 R
(1788036998.544509) can0 361#2D0D080DE600E600 R
(1788036998.564510) can0 500#F002AA56312E3046 R
(1788036998.714517) can0 650#53414D504C453031 R
(1788036998.754537) can0 35C#4000000000000000 R
(1788036998.774524) can0 363#F002F00200000000 R
(1788036998.784508) can0 200#2D0D080DE600E600 R
(1788036998.894594) can0 110#0000000000000021 R
(1788036998.904766) can0 355#6400640000000000 R
(1788036998.994582) can0 364#0101000001000000 R
(1788036999.104636) can0 250#FA0070FE0000E600 R
(1788036999.204615) can0 35E#44593030311CFC08 R
(1788036999.214594) can0 351#48020000FC08E001 R
(1788036999.274538) can0 356#E6140000E6000000 R
(1788036999.364582) can0 400#0000000000001200 R
(1788036999.384638) can0 305#0000000000000000 T
(1788036999.384671) can0 307#1234567856494300 T
(1788036999.404608) can0 150#17020000E403E803 R
(1788036999.424568) can0 359#0000000000000000 R
(1788036999.494582) can0 371#0000FC0800000000 R
(1788036999.574543) can0 361#2D0D080DE600E600 R
(1788036999.684564) can0 600#53414D504C453030 R
(1788036999.804584) can0 200#2D0D080DE600E600 R
(1788036999.814546) can0 363#F002F00200000000 R
(1788036999.844604) can0 35C#4000000000000000 R
(1788036999.894607) can0 110#0000000000000021 R
(1788036999.914541) can0 355#6400640000000000 R
(1788037000.044581) can0 364#0101000001000000 R
(1788037000.134616) can0 250#FA0070FE0000E600 R
(1788037000.154694) can0 700#02001A0000000000 R
(1788037000.274603) can0 351#48020000FC08E001 R
(1788037000.294580) can0 356#E6140000E6000000 R
(1788037000.314574) can0 35E#44593030311CFC08 R
(1788037000.383844) can0 305#0000000000000000 T
(1788037000.383884) can0 307#1234567856494300 T
(1788037000.404701) can0 400#0000000000001200 R
(1788037000.414579) can0 150#17020000E403E803 R
(1788037000.424570) can0 359#0000000000000000 R
(1788037000.564627) can0 371#0000FC0800000000 R
(1788037000.604597) can0 361#2D0D080DE600E600 R
(1788037000.664598) can0 500#F002AA56312E3046 R
(1788037000.824599) can0 200#2D0D080DE600E600 R
(1788037000.844601) can0 650#53414D504C453031 R
(1788037000.854603) can0 363#F002F00200000000 R
(1788037000.894646) can0 110#0000000000000021 R
(1788037000.924603) can0 355#6400640000000000 R
(1788037000.934598) can0 35C#4000000000000000 R
(1788037001.094612) can0 364#0101000001000000 R
(1788037001.164712) can0 250#FA0070FE0000E600 R
(1788037001.314633) can0 356#E6140000E6000000 R
(1788037001.344630) can0 351#48020000FC08E001 R
(1788037001.384702) can0 305#0000000000000000 T
(1788037001.384738) can0 307#1234567856494300 T
(1788037001.404709) can0 35E#44593030311CFC08 R
(1788037001.424759) can0 359#0000000000000000 R
(1788037001.424817) can0 150#17020000E403E803 R
(1788037001.454847) can0 400#0000000000001200 R
(1788037001.634658) can0 361#2D0D080DE600E600 R
(1788037001.644606) can0 371#0000FC0800000000 R
(1788037001.794646) can0 600#53414D504C453030 R
(1788037001.844650) can0 200#2D0D080DE600E600 R
(1788037001.894749) can0 363#F002F00200000000 R
(1788037001.894789) can0 110#0000000000000021 R
(1788037001.934643) can0 355#6400640000000000 R
(1788037002.014682) can0 35C#4000000000000000 R
(1788037002.144879) can0 364#0101000001000000 R
(1788037002.194733) can0 250#FA0070FE0000E600 R
(1788037002.334706) can0 356#E6140000E6000000 R
(1788037002.384786) can0 305#0000000000000000 T
(1788037002.384823) can0 307#1234567856494300 T
(1788037002.404732) can0 351#48020000FC08E001 R
(1788037002.424667) can0 359#0000000000000000 R
(1788037002.434649) can0 150#17020000E403E803 R
(1788037002.494729) can0 400#0000000000001200 R
(1788037002.504723) can0 35E#44593030311CFC08 R
(1788037002.664654) can0 361#2D0D080DE600E600 R
(1788037002.714697) can0 371#0000FC0800000000 R
(1788037002.764680) can0 500#F002AA56312E3046 R
(1788037002.864700) can0 200#2D0D080DE600E600 R
(1788037002.894730) can0 110#0000000000000021 R
(1788037002.924711) can0 550#2E18000033000000 R
(1788037002.934687) can0 363#F002F00200000000 R
(1788037002.944680) can0 355#6400640000000000 R
(1788037002.984741) can0 650#53414D504C453031 R
(1788037003.094727) can0 35C#4000000000000000 R
(1788037003.194821) can0 364#0101000001000000 R
(1788037003.224762) can0 250#FA0070FE0000E600 R
(1788037003.354741) can0 356#E6140000E6000000 R
(1788037003.384888) can0 305#0000000000000000 T
(1788037003.384922) can0 307#1234567856494300 T
(1788037003.424734) can0 359#0000000000000000 R
(1788037003.444713) can0 150#17020000E403E803 R
(1788037003.474712) can0 351#48020000FC08E001 R
(1788037003.534795) can0 400#0000000000001200 R
(1788037003.594735) can0 35E#44593030311CFC08 R
(1788037003.634749) can0 750#0000000000000000 R
(1788037003.694718) can0 361#2D0D080DE600E600 R
(1788037003.784735) can0 371#0000FC0800000000 R
(1788037003.884739) can0 200#2D0D080DE600E600 R
(1788037003.894774) can0 110#0000000000000021 R
(1788037003.934738) can0 600#53414D504C453030 R
(1788037003.954701) can0 355#6400640000000000 R
(1788037003.984764) can0 363#F002F00200000000 R
(1788037004.174946) can0 35C#4000000000000000 R
(1788037004.244762) can0 364#0101000001000000 R
(1788037004.255725) can0 250#FA0070FE0000E600 R
(1788037004.374765) can0 356#E6140000E6000000 R
(1788037004.384881) can0 305#0000000000000000 T
(1788037004.384914) can0 307#1234567856494300 T
(1788037004.424742) can0 359#0000000000000000 R
(1788037004.454755) can0 150#17020000E403E803 R
(1788037004.534758) can0 351#48020000FC08E001 R
(1788037004.574923) can0 400#0000000000001200 R
(1788037004.684750) can0 35E#44593030311CFC08 R
(1788037004.724737) can0 361#2D0D080DE600E600 R
(1788037004.854782) can0 371#0000FC0800000000 R
(1788037004.864750) can0 500#F002AA56312E3046 R
(1788037004.894819) can0 110#0000000000000021 R
(1788037004.914752) can0 200#2D0D080DE600E600 R
(1788037004.964755) can0 355#6400640000000000 R
(1788037005.024791) can0 363#F002F00200000000 R
(1788037005.105018) can0 650#53414D504C453031 R
(1788037005.254806) can0 35C#4000000000000000 R
(1788037005.284797) can0 250#FA0070FE0000E600 R
(1788037005.294779) can0 364#0101000001000000 R
(1788037005.384050) can0 305#0000000000000000 T
(1788037005.384089) can0 307#1234567856494300 T
(1788037005.394780) can0 356#E6140000E6000000 R
(1788037005.424765) can0 359#0000000000000000 R
(1788037005.464811) can0 150#17020000E403E803 R
(1788037005.504873) can0 700#02001A0000000000 R
(1788037005.594938) can0 351#48020000FC08E001 R
(1788037005.614820) can0 400#0000000000001200 R
(1788037005.754805) can0 361#2C0D080DE600E600 R
(1788037005.784790) can0 35E#44593030311CFC08 R
(1788037005.894880) can0 110#0000000000000021 R
(1788037005.924804) can0 371#0000FC0800000000 R
(1788037005.934779) can0 200#2C0D080DE600E600 R
(1788037005.974792) can0 355#6400640000000000 R
(1788037006.044842) can0 600#53414D504C453030 R
(1788037006.064925) can0 363#F002F00200000000 R
(1788037006.314812) can0 250#FA0070FE0000E600 R
(1788037006.334834) can0 35C#4000000000000000 R
(1788037006.344814) can0 364#0101000001000000 R
(1788037006.384979) can0 305#0000000000000000 T
(1788037006.385015) can0 307#1234567856494300 T
(1788037006.414802) can0 356#E6140000E6000000 R
(1788037006.424824) can0 359#0000000000000000 R
(1788037006.474831) can0 150#17020000E403E803 R
(1788037006.654943) can0 351#48020000FC08E001 R
(1788037006.654992) can0 400#0000000000001200 R
(1788037006.784844) can0 361#2C0D080DE600E600 R
(1788037006.874848) can0 35E#44593030311CFC08 R
(1788037006.894916) can0 110#0000000000000021 R
(1788037006.954842) can0 200#2D0D080DE600E600 R
(1788037006.985038) can0 355#6400640000000000 R
(1788037006.985094) can0 500#F002AA56312E3046 R
(1788037007.004852) can0 371#0000FC0800000000 R
(1788037007.104985) can0 363#F002F00200000000 R
(1788037007.224911) can0 650#53414D504C453031 R
(1788037007.344870) can0 250#FA0070FE0000E600 R
(1788037007.385027) can0 305#0000000000000000 T
(1788037007.385068) can0 307#1234567856494300 T
(1788037007.394872) can0 364#0101000001000000 R
(1788037007.424899) can0 359#0000000000000000 R
(1788037007.434861) can0 35C#4000000000000000 R
(1788037007.444825) can0 356#E6140000E6000000 R
(1788037007.484874) can0 150#17020000E403E803 R
(1788037007.694914) can0 400#0000000000001200 R
(1788037007.714870) can0 351#48020000FC08E001 R
(1788037007.814887) can0 361#2D0D080DE600E600 R
(1788037007.894956) can0 110#0000000000000021 R
(1788037007.964896) can0 35E#44593030311CFC08 R
(1788037007.974860) can0 200#2D0D080DE600E600 R
(1788037007.994931) can0 355#6400640000000000 R
(1788037008.074896) can0 371#0000FC0800000000 R
(1788037008.144967) can0 363#F002F00200000000 R
(1788037008.155025) can0 600#53414D504C453030 R
(1788037008.195009) can0 550#2E18000033000000 R
(1788037008.374902) can0 250#FA0070FE0000E600 R
(1788037008.385046) can0 305#0000000000000000 T
(1788037008.385081) can0 307#1234567856494300 T
(1788037008.424910) can0 359#0000000000000000 R
(1788037008.454906) can0 364#0101000001000000 R
(1788037008.464899) can0 356#E6140000E6000000 R
(1788037008.494921) can0 150#17020000E403E803 R
(1788037008.524924) can0 35C#4000000000000000 R
(1788037008.734953) can0 400#0000000000001200 R
(1788037008.774903) can0 351#48020000FC08E001 R
(1788037008.844949) can0 361#2D0D080DE600E600 R
(1788037008.894985) can0 110#0000000000000021 R
(1788037008.984963) can0 750#0000000000000000 R
(1788037008.994954) can0 200#2D0D080DE600E600 R
(1788037009.004907) can0 355#6400640000000000 R
(1788037009.064938) can0 35E#44593030311CFC08 R
(1788037009.084906) can0 500#F002AA56312E3046 R
(1788037009.144988) can0 371#0000FC0800000000 R
(1788037009.185007) can0 363#F002F00200000000 R
(1788037009.354974) can0 650#53414D504C453031 R
(1788037009.385044) can0 305#0000000000000000 T
(1788037009.385078) can0 307#1234567856494300 T
(1788037009.405039) can0 250#FA0070FE0000E600 R
(1788037009.424947) can0 359#0000000000000000 R
(1788037009.484932) can0 356#E6140000E6000000 R
(1788037009.505032) can0 150#17020000E403E803 R
(1788037009.514954) can0 364#0101000001000000 R
(1788037009.604978) can0 35C#4000000000000000 R
(1788037009.774983) can0 400#0000000000001200 R
(1788037009.834995) can0 351#48020000FC08E001 R
(1788037009.874939) can0 361#2D0D080DE600E600 R
(1788037009.895041) can0 110#0000000000000021 R
(1788037010.015047) can0 355#6400640000000000 R
(1788037010.015099) can0 200#2D0D090DE600E600 R
(1788037010.155134) can0 35E#44593030311CFC08 R
(1788037010.215000) can0 371#0000FC0800000000 R
(1788037010.225076) can0 363#F002F00200000000 R
(1788037010.274987) can0 600#53414D504C453030 R
(1788037010.383457) can0 305#0000000000000000 T
(1788037010.383499) can0 307#1234567856494300 T
(1788037010.424980) can0 359#0000000000000000 R
(1788037010.434965) can0 250#FA0070FE0000E600 R
(1788037010.505103) can0 356#E6140000E6000000 R
(1788037010.514969) can0 150#17020000E403E803 R
(1788037010.565022) can0 364#0101000001000000 R
(1788037010.685009) can0 35C#4000000000000000 R
(1788037010.815087) can0 400#0000000000001200 R
(1788037010.845086) can0 700#02001A0000000000 R
(1788037010.895123) can0 351#48020000FC08E001 R
(1788037010.895167) can0 110#0000000000000021 R
(1788037010.905241) can0 361#2D0D080DE600E600 R
(1788037011.025036) can0 355#6400640000000000 R
(1788037011.035009) can0 200#2D0D080DE600E600 R
(1788037011.185087) can0 500#F002AA56312E3046 R
(1788037011.245054) can0 35E#44593030311CFC08 R
(1788037011.264993) can0 363#F002F00200000000 R
(1788037011.295009) can0 371#0000FC0800000000 R
(1788037011.384304) can0 305#0000000000000000 T
(1788037011.384346) can0 307#1234567856494300 T
(1788037011.425026) can0 359#0000000000000000 R
(1788037011.465014) can0 250#FA0070FE0000E600 R
(1788037011.485032) can0 650#53414D504C453031 R
(1788037011.525139) can0 356#E6140000E6000000 R
(1788037011.525181) can0 150#17020000E403E803 R
(1788037011.615034) can0 364#0101000001000000 R
(1788037011.765063) can0 35C#4000000000000000 R
(1788037011.855112) can0 400#0000000000001200 R
(1788037011.895109) can0 110#0000000000000021 R
(1788037011.935049) can0 361#2D0D080DE600E600 R
(1788037011.965049) can0 351#48020000FC08E001 R
(1788037012.035076) can0 355#6400640000000000 R
(1788037012.055045) can0 200#2D0D090DE600E600 R
(1788037012.305266) can0 363#F002F00200000000 R
(1788037012.345073) can0 35E#44593030311CFC08 R
(1788037012.365077) can0 371#0000FC0800000000 R
(1788037012.385108) can0 600#53414D504C453030 R
(1788037012.385137) can0 305#0000000000000000 T
(1788037012.385480) can0 307#1234567856494300 T
(1788037012.425073) can0 359#0000000000000000 R
(1788037012.495075) can0 250#FA0070FE0000E600 R
(1788037012.535077) can0 150#17020000E403E803 R
(1788037012.545060) can0 356#E6140000E6000000 R
(1788037012.665059) can0 364#0101000001000000 R
(1788037012.845120) can0 35C#4000000000000000 R
(1788037012.895128) can0 110#0000000000000021 R
(1788037012.905340) can0 400#0000000000001200 R
(1788037012.965077) can0 361#2D0D090DE600E600 R
(1788037013.025099) can0 351#48020000FC08E001 R
(1788037013.045115) can0 355#6400640000000000 R
(1788037013.075101) can0 200#2C0D080DE600E600 R
(1788037013.285134) can0 500#F002AA56312E3046 R
(1788037013.345141) can0 363#F002F00200000000 R
(1788037013.385209) can0 305#0000000000000000 T
(1788037013.385242) can0 307#1234567856494300 T
(1788037013.425114) can0 359#0000000000000000 R
(1788037013.445110) can0 371#0000FC0800000000 R
(1788037013.455059) can0 35E#44593030311CFC08 R
(1788037013.475106) can0 550#2E18000033000000 R
(1788037013.525120) can0 250#FA0070FE0000E600 R
(1788037013.545097) can0 150#17020000E403E803 R
(1788037013.565100) can0 356#E6140000E6000000 R
(1788037013.625129) can0 650#53414D504C453031 R
(1788037013.715119) can0 364#0101000001000000 R
(1788037013.895171) can0 110#0000000000000021 R
(1788037013.925197) can0 35C#4000000000000000 R
(1788037013.945190) can0 400#0000000000001200 R
(1788037013.995256) can0 361#2C0D080DE600E600 R
(1788037014.055185) can0 355#6400640000000000 R
(1788037014.095278) can0 351#48020000FC08E001 R
(1788037014.095316) can0 200#2C0D080DE600E600 R
(1788037014.345205) can0 750#0000000000000000 R
(1788037014.385224) can0 363#F002F00200000000 R
(1788037014.385257) can0 305#0000000000000000 T
(1788037014.385601) can0 307#1234567856494300 T
(1788037014.425178) can0 359#0000000000000000 R
(1788037014.505295) can0 600#53414D504C453030 R
(1788037014.515165) can0 371#0000FC0800000000 R
(1788037014.545170) can0 35E#44593030311CFC08 R
(1788037014.555192) can0 150#17020000E403E803 R
(1788037014.565166) can0 250#FA0070FE0000E600 R
(1788037014.585177) can0 356#E6140000E6000000 R
(1788037014.765250) can0 364#0101000001000000 R
(1788037014.895285) can0 110#0000000000000021 R
(1788037014.985237) can0 400#0000000000001200 R
(1788037015.005250) can0 35C#4000000000000000 R
(1788037015.025185) can0 361#2C0D080DE600E600 R
(1788037015.065196) can0 355#6400640000000000 R
(1788037015.115195) can0 200#2C0D080DE600E600 R
(1788037015.155364) can0 351#48020000FC08E001 R
(1788037015.385208) can0 500#F002AA56312E3046 R
(1788037015.386191) can0 305#0000000000000000 T
(1788037015.386250) can0 307#1234567856494300 T
(1788037015.425206) can0 359#0000000000000000 R
(1788037015.435220) can0 363#F002F00200000000 R
(1788037015.565228) can0 150#17020000E403E803 R
(1788037015.585241) can0 371#0000FC0800000000 R
(1788037015.595210) can0 250#FA0070FE0000E600 R
(1788037015.605396) can0 356#E6140000E6000000 R
(1788037015.645213) can0 35E#44593030311CFC08 R
(1788037015.745231) can0 650#53414D504C453031 R
(1788037015.815266) can0 364#0101000001000000 R
(1788037015.895269) can0 110#0000000000000021 R
(1788037016.025262) can0 400#0000000000001200 R
(1788037016.055229) can0 361#2D0D080DE600E600 R
(1788037016.075209) can0 355#6400640000000000 R
(1788037016.105317) can0 35C#4000000000000000 R
(1788037016.135203) can0 200#2D0D080DE600E600 R
(1788037016.205377) can0 700#02001A0000000000 R
(1788037016.215452) can0 351#48020000FC08E001 R
(1788037016.384027) can0 305#0000000000000000 T
(1788037016.384075) can0 307#1234567856494300 T
(1788037016.425213) can0 359#0000000000000000 R
(1788037016.475234) can0 363#F002F00200000000 R
(1788037016.575232) can0 150#17020000E403E803 R
(1788037016.625307) can0 356#E6140000E6000000 R
(1788037016.625359) can0 250#FA0070FE0000E600 R
(1788037016.635242) can0 600#53414D504C453030 R
(1788037016.665238) can0 371#0000FC0800000000 R
(1788037016.735236) can0 35E#44593030311CFC08 R
(1788037016.865248) can0 364#0101000001000000 R
(1788037016.895292) can0 110#0000000000000021 R
(1788037017.065293) can0 400#0000000000001200 R
(1788037017.085256) can0 355#6400640000000000 R
(1788037017.095238) can0 361#2D0D080DE600E600 R
(1788037017.155469) can0 200#2D0D080DE600E600 R
(1788037017.185395) can0 35C#4000000000000000 R
(1788037017.275265) can0 351#48020000FC08E001 R
(1788037017.383739) can0 305#0000000000000000 T
(1788037017.383781) can0 307#1234567856494300 T
(1788037017.425265) can0 359#0000000000000000 R
(1788037017.485263) can0 500#F002AA56312E3046 R
(1788037017.515243) can0 363#F002F00200000000 R
(1788037017.585292) can0 150#17020000E403E803 R
(1788037017.645272) can0 356#E6140000E6000000 R
(1788037017.655248) can0 250#FA0070FE0000E600 R
(1788037017.735284) can0 371#0000FC0800000000 R
(1788037017.825307) can0 35E#44593030311CFC08 R
(1788037017.865296) can0 650#53414D504C453031 R
(1788037017.895346) can0 110#0000000000000021 R
(1788037017.915266) can0 364#0101000001000000 R
(1788037018.095295) can0 355#6400640000000000 R
(1788037018.105391) can0 400#0000000000001200 R
(1788037018.125285) can0 361#2D0D080DE600E600 R
(1788037018.175462) can0 200#2D0D080DE600E600 R
(1788037018.265306) can0 35C#4000000000000000 R
(1788037018.335315) can0 351#48020000FC08E001 R
(1788037018.385423) can0 305#0000000000000000 T
(1788037018.385459) can0 307#1234567856494300 T
(1788037018.425303) can0 359#0000000000000000 R
(1788037018.555326) can0 363#F002F00200000000 R
(1788037018.595327) can0 150#17020000E403E803 R
(1788037018.665296) can0 356#E6140000E6000000 R
(1788037018.685315) can0 250#FA0070FE0000E600 R
(1788037018.745314) can0 600#53414D504C453030 R
(1788037018.765303) can0 550#2E18000033000000 R
(1788037018.805509) can0 371#0000FC0800000000 R
(1788037018.895397) can0 110#0000000000000021 R
(1788037018.915299) can0 35E#44593030311CFC08 R
(1788037018.965331) can0 364#0101000001000000 R
(1788037019.105437) can0 355#6400640000000000 R
(1788037019.145426) can0 400#0000000000001200 R
(1788037019.155353) can0 361#2D0D080DE600E600 R
(1788037019.195417) can0 200#2D0D080DE600E600 R
(1788037019.345637) can0 35C#4000000000000000 R
(1788037019.387739) can0 305#0000000000000000 T
(1788037019.387781) can0 307#1234567856494300 T
(1788037019.395377) can0 351#48020000FC08E001 R
(1788037019.425325) can0 359#0000000000000000 R
(1788037019.585341) can0 500#F002AA56312E3046 R
(1788037019.595337) can0 363#F002F00200000000 R
(1788037019.605343) can0 150#17020000E403E803 R
(1788037019.685343) can0 356#E6140000E6000000 R
(1788037019.705457) can0 750#0000000000000000 R
(1788037019.715347) can0 250#FA0070FE0000E600 R
(1788037019.875383) can0 371#0000FC0800000000 R
(1788037019.895463) can0 110#0000000000000021 R
(1788037020.005479) can0 35E#44593030311CFC08 R
(1788037020.005536) can0 650#53414D504C453031 R
(1788037020.015388) can0 364#0101000001000000 R
(1788037020.115382) can0 355#6400640000000000 R
(1788037020.185658) can0 361#2D0D080DE600E600 R
(1788037020.185749) can0 400#0000000000001200 R
(1788037020.215478) can0 200#2D0D080DE600E600 R
(1788037020.383220) can0 305#0000000000000000 T
(1788037020.383267) can0 307#1234567856494300 T
(1788037020.425452) can0 359#0000000000000000 R
(1788037020.435453) can0 35C#4000000000000000 R
(1788037020.465378) can0 351#48020000FC08E001 R
(1788037020.615423) can0 150#17020000E403E803 R
(1788037020.635396) can0 363#F002F00200000000 R
(1788037020.705475) can0 356#E6140000E6000000 R
(1788037020.745397) can0 250#FA0070FE0000E600 R
(1788037020.865424) can0 600#53414D504C453030 R
(1788037020.895489) can0 110#0000000000000021 R
(1788037020.945441) can0 371#0000FC0800000000 R
(1788037021.065420) can0 364#0101000001000000 R
(1788037021.105473) can0 35E#44593030311CFC08 R
(1788037021.125404) can0 355#6400640000000000 R
(1788037021.215518) can0 361#2D0D080DE600E600 R
(1788037021.225499) can0 400#0000000000001200 R
(1788037021.236501) can0 200#2D0D080DE600E600 R
(1788037021.384938) can0 305#0000000000000000 T
(1788037021.384978) can0 307#1234567856494300 T
(1788037021.425453) can0 359#0000000000000000 R
(1788037021.515438) can0 35C#4000000000000000 R
(1788037021.525441) can0 351#48020000FC08E001 R
(1788037021.535418) can0 700#02001A0000000000 R
(1788037021.625442) can0 150#17020000E403E803 R
(1788037021.675423) can0 363#F002F00200000000 R
(1788037021.695420) can0 500#F002AA56312E3046 R
(1788037021.725448) can0 356#E6140000E6000000 R
(1788037021.775451) can0 250#FA0070FE0000E600 R
(1788037021.895647) can0 110#0000000000000021 R
(1788037022.015464) can0 371#0000FC0800000000 R
(1788037022.115475) can0 364#0101000001000000 R
(1788037022.125449) can0 650#53414D504C453031 R
(1788037022.135429) can0 355#6400640000000000 R
(1788037022.205584) can0 35E#44593030311CFC08 R
(1788037022.245591) can0 361#2D0D080DE600E600 R
(1788037022.255503) can0 200#2D0D090DE600E600 R
(1788037022.275519) can0 400#0000000000001200 R
(1788037022.383899) can0 305#0000000000000000 T
(1788037022.383939) can0 307#1234567856494300 T
(1788037022.425508) can0 359#0000000000000000 R
(1788037022.585459) can0 351#48020000FC08E001 R
(1788037022.605503) can0 35C#4000000000000000 R
(1788037022.635463) can0 150#17020000E403E803 R
(1788037022.715477) can0 363#F002F00200000000 R
(1788037022.745469) can0 356#E6140000E6000000 R
(1788037022.805509) can0 250#FA0070FE0000E600 R
(1788037022.895552) can0 110#0000000000000021 R
(1788037022.985492) can0 600#53414D504C453030 R
(1788037023.085488) can0 371#0000FC0800000000 R
(1788037023.145535) can0 355#6400640000000000 R
(1788037023.175558) can0 364#0101000001000000 R
(1788037023.275566) can0 361#2D0D090DE600E600 R
(1788037023.275620) can0 200#2D0D080DE600E600 R
(1788037023.305584) can0 35E#44593030311CFC08 R
(1788037023.315510) can0 400#0000000000001200 R
(1788037023.384759) can0 305#0000000000000000 T
(1788037023.384795) can0 307#1234567856494300 T
(1788037023.425516) can0 359#0000000000000000 R
(1788037023.645631) can0 351#48020000FC08E001 R
(1788037023.645679) can0 150#17020000E403E803 R
(1788037023.685508) can0 35C#4000000000000000 R
(1788037023.755537) can0 363#F002F00200000000 R
(1788037023.765514) can0 356#E6140000E6000000 R
(1788037023.795503) can0 500#F002AA56312E3046 R
(1788037023.835524) can0 250#FA0070FE0000E600 R
(1788037023.895597) can0 110#0000000000000021 R
(1788037024.055550) can0 550#2E18000033000000 R
(1788037024.155579) can0 355#6400640000000000 R
(1788037024.165629) can0 371#0000FC0800000000 R
(1788037024.225656) can0 364#0101000001000000 R
(1788037024.255662) can0 650#53414D504C453031 R
(1788037024.295534) can0 200#2D0D080DE600E600 R
(1788037024.305617) can0 361#2D0D080DE600E600 R
(1788037024.355562) can0 400#0000000000001200 R
(1788037024.385795) can0 305#0000000000000000 T
(1788037024.385835) can0 307#1234567856494300 T
(1788037024.395531) can0 35E#44593030311CFC08 R
(1788037024.425553) can0 359#0000000000000000 R
(1788037024.655550) can0 150#17020000E403E803 R
(1788037024.705643) can0 351#48020000FC08E001 R
(1788037024.765561) can0 35C#4000000000000000 R
(1788037024.785550) can0 356#E6140000E6000000 R
(1788037024.805543) can0 363#F002F00200000000 R
(1788037024.865556) can0 250#FA0070FE0000E600 R
(1788037024.895644) can0 110#0000000000000021 R
(1788037025.065666) can0 750#0000000000000000 R
(1788037025.105678) can0 600#53414D504C453030 R
(1788037025.165703) can0 355#6400640000000000 R
(1788037025.235666) can0 371#0000FC0800000000 R
(1788037025.275630) can0 364#0101000001000000 R
(1788037025.315550) can0 200#2D0D080DE600E600 R
(1788037025.335574) can0 361#2D0D080DE600E600 R
(1788037025.385617) can0 305#0000000000000000 T
(1788037025.385654) can0 307#1234567856494300 T
(1788037025.395602) can0 400#0000000000001200 R
(1788037025.425577) can0 359#0000000000000000 R
(1788037025.495565) can0 35E#44593030311CFC08 R
(1788037025.665590) can0 150#17020000E403E803 R
(1788037025.765584) can0 351#48020000FC08E001 R
(1788037025.805616) can0 356#E6140000E6000000 R
(1788037025.845627) can0 363#F002F00200000000 R
(1788037025.865596) can0 35C#4000000000000000 R
(1788037025.895659) can0 110#0000000000000021 R
(1788037025.905833) can0 250#FA0070FE0000E600 R
(1788037025.915577) can0 500#F002AA56312E3046 R
(1788037026.175677) can0 355#6400640000000000 R
(1788037026.305726) can0 371#0000FC0800000000 R
(1788037026.325657) can0 364#0101000001000000 R
(1788037026.335602) can0 200#2D0D080DE600E600 R
(1788037026.365594) can0 361#2D0D080DE600E600 R
(1788037026.385650) can0 650#53414D504C453031 R
(1788037026.385683) can0 305#0000000000000000 T
(1788037026.386030) can0 307#1234567856494300 T
(1788037026.425629) can0 359#0000000000000000 R
(1788037026.435644) can0 400#0000000000001200 R
(1788037026.585618) can0 35E#44593030311CFC08 R
(1788037026.675698) can0 150#17020000E403E803 R
(1788037026.825662) can0 356#E6140000E6000000 R
(1788037026.835649) can0 351#48020000FC08E001 R
(1788037026.885747) can0 363#F002F00200000000 R
(1788037026.885789) can0 700#02001A0000000000 R
(1788037026.895695) can0 110#0000000000000021 R
(1788037026.935652) can0 250#FA0070FE0000E600 R
(1788037026.945633) can0 35C#4000000000000000 R
(1788037027.185751) can0 355#6400640000000000 R
(1788037027.215705) can0 600#53414D504C453030 R
(1788037027.355674) can0 200#2C0D090DE600E600 R
(1788037027.375633) can0 364#0101000001000000 R
(1788037027.385724) can0 371#0000FC0800000000 R
(1788037027.385755) can0 305#0000000000000000 T
(1788037027.386076) can0 307#1234567856494300 T
(1788037027.395650) can0 361#2D0D080DE600E600 R
(1788037027.425656) can0 359#0000000000000000 R
(1788037027.475694) can0 400#0000000000001200 R
(1788037027.675687) can0 35E#44593030311CFC08 R
(1788037027.685681) can0 150#17020000E403E803 R
(1788037027.845705) can0 356#E6140000E6000000 R
(1788037027.895777) can0 351#48020000FC08E001 R
(1788037027.895819) can0 110#0000000000000021 R
(1788037027.925682) can0 363#F002F00200000000 R
(1788037027.965695) can0 250#FA0070FE0000E600 R
(1788037028.015677) can0 500#F002AA56312E3046 R
(1788037028.025696) can0 35C#4000000000000000 R
(1788037028.195944) can0 355#6400640000000000 R
(1788037028.375686) can0 200#2C0D080DE600E600 R
(1788037028.385839) can0 305#0000000000000000 T
(1788037028.385871) can0 307#1234567856494300 T
(1788037028.425693) can0 359#0000000000000000 R
(1788037028.435678) can0 361#2C0D080DE600E600 R
(1788037028.445672) can0 364#0101000001000000 R
(1788037028.475670) can0 371#0000FC0800000000 R
(1788037028.505798) can0 650#53414D504C453031 R
(1788037028.515714) can0 400#0000000000001200 R
(1788037028.695735) can0 150#17020000E403E803 R
(1788037028.765763) can0 35E#44593030311CFC08 R
(1788037028.865748) can0 356#E6140000E6000000 R
(1788037028.895795) can0 110#0000000000000021 R
(1788037028.955725) can0 351#48020000FC08E001 R
(1788037028.965710) can0 363#F002F00200000000 R
(1788037028.995739) can0 250#FA0070FE0000E600 R
(1788037029.105851) can0 35C#4000000000000000 R
(1788037029.205791) can0 355#6400640000000000 R
(1788037029.325771) can0 550#2E18000033000000 R
(1788037029.335739) can0 600#53414D504C453030 R
(1788037029.385809) can0 305#0000000000000000 T
(1788037029.385850) can0 307#1234567856494300 T
(1788037029.395819) can0 200#2C0D080DE600E600 R
(1788037029.425779) can0 359#0000000000000000 R
(1788037029.465731) can0 361#2C0D080DE600E600 R
(1788037029.495731) can0 364#0101000001000000 R
(1788037029.545752) can0 371#0000FC0800000000 R
(1788037029.555769) can0 400#0000000000001200 R
(1788037029.705866) can0 150#17020000E403E803 R
(1788037029.855769) can0 35E#44593030311CFC08 R
(1788037029.885753) can0 356#E6140000E6000000 R
(1788037029.895814) can0 110#0000000000000021 R
(1788037030.005777) can0 363#F002F00200000000 R
(1788037030.025837) can0 351#48020000FC08E001 R
(1788037030.025890) can0 250#FA0070FE0000E600 R
(1788037030.115808) can0 500#F002AA56312E3046 R
(1788037030.185939) can0 35C#4000000000000000 R
(1788037030.215890) can0 355#6400640000000000 R
(1788037030.383650) can0 305#0000000000000000 T
(1788037030.383693) can0 307#1234567856494300 T
(1788037030.415792) can0 200#2D0D080DE600E600 R
(1788037030.425905) can0 359#0000000000000000 R
(1788037030.425948) can0 750#0000000000000000 R
(1788037030.495778) can0 361#2D0D080DE600E600 R
(1788037030.545795) can0 364#0101000001000000 R
(1788037030.595831) can0 400#0000000000001200 R
(1788037030.615796) can0 371#0000FC0800000000 R
(1788037030.645794) can0 650#53414D504C453031 R
(1788037030.715821) can0 150#17020000E403E803 R
(1788037030.895875) can0 110#0000000000000021 R
(1788037030.906098) can0 356#E6140000E6000000 R
(1788037030.955790) can0 35E#44593030311CFC08 R
(1788037031.045833) can0 363#F002F00200000000 R
(1788037031.055824) can0 250#FA0070FE0000E600 R
(1788037031.085786) can0 351#48020000FC08E001 R
(1788037031.225875) can0 355#6400640000000000 R
(1788037031.275875) can0 35C#4000000000000000 R
(1788037031.384458) can0 305#0000000000000000 T
(1788037031.384505) can0 307#1234567856494300 T
(1788037031.425840) can0 359#0000000000000000 R
(1788037031.436765) can0 200#2D0D090DE600E600 R
(1788037031.455811) can0 600#53414D504C453030 R
(1788037031.525812) can0 361#2D0D090DE600E600 R
(1788037031.595852) can0 364#0101000001000000 R
(1788037031.635858) can0 400#0000000000001200 R
(1788037031.685864) can0 371#0000FC0800000000 R
(1788037031.725856) can0 150#17020000E403E803 R
(1788037031.895917) can0 110#0000000000000021 R
(1788037031.925866) can0 356#E6140000E6000000 R
(1788037032.045872) can0 35E#44593030311CFC08 R
(1788037032.085932) can0 363#F002F00200000000 R
(1788037032.085974) can0 250#FA0070FE0000E600 R
(1788037032.145840) can0 351#48020000FC08E001 R
(1788037032.215947) can0 500#F002AA56312E3046 R
(1788037032.235929) can0 355#6400640000000000 R
(1788037032.246008) can0 700#02001A0000000000 R
(1788037032.355878) can0 35C#4000000000000000 R
(1788037032.385966) can0 305#0000000000000000 T
(1788037032.386000) can0 307#1234567856494300 T
(1788037032.425862) can0 359#0000000000000000 R
(1788037032.455840) can0 200#2D0D080DE600E600 R
(1788037032.555905) can0 361#2D0D080DE600E600 R
(1788037032.645915) can0 364#0101000001000000 R
(1788037032.675919) can0 400#0000000000001200 R
(1788037032.735905) can0 150#17020000E403E803 R
(1788037032.756226) can0 371#0000FC0800000000 R
(1788037032.775951) can0 650#53414D504C453031 R
(1788037032.895997) can0 110#0000000000000021 R
(1788037032.945920) can0 356#E6140000E6000000 R
(1788037033.115941) can0 250#FA0070FE0000E600 R
(1788037033.125910) can0 363#F002F00200000000 R
(1788037033.145921) can0 35E#44593030311CFC08 R
(1788037033.206086) can0 351#48020000FC08E001 R
(1788037033.246037) can0 355#6400640000000000 R
(1788037033.384800) can0 305#0000000000000000 T
(1788037033.384841) can0 307#1234567856494300 T
(1788037033.425970) can0 359#0000000000000000 R
(1788037033.445998) can0 35C#4000000000000000 R
(1788037033.476025) can0 200#2C0D080DE600E600 R
(1788037033.566003) can0 600#53414D504C453030 R
(1788037033.586004) can0 361#2C0D080DE600E600 R
(1788037033.695994) can0 364#0101000001000000 R
(1788037033.715981) can0 400#0000000000001200 R
(1788037033.745978) can0 150#17020000E403E803 R
(1788037033.825977) can0 371#0000FC0800000000 R
(1788037033.896032) can0 110#0000000000000021 R
(1788037033.965963) can0 356#E6140000E6000000 R
(1788037034.145967) can0 250#FA0070FE0000E600 R
(1788037034.165987) can0 363#F002F00200000000 R
(1788037034.236040) can0 35E#44593030311CFC08 R
(1788037034.257107) can0 355#6400640000000000 R
(1788037034.275983) can0 351#48020000FC08E001 R
(1788037034.315952) can0 500#F002AA56312E3046 R
(1788037034.385274) can0 305#0000000000000000 T
(1788037034.385317) can0 307#1234567856494300 T
(1788037034.425938) can0 359#0000000000000000 R
(1788037034.495931) can0 200#2D0D080DE600E600 R
(1788037034.525950) can0 35C#4000000000000000 R
(1788037034.615960) can0 361#2D0D080DE600E600 R
(1788037034.616893) can0 550#2E18000033000000 R
(1788037034.745986) can0 364#0101000001000000 R
(1788037034.756105) can0 150#17020000E403E803 R
(1788037034.766033) can0 400#0000000000001200 R
(1788037034.896092) can0 371#0000FC0800000000 R
(1788037034.896139) can0 110#0000000000000021 R
(1788037034.915969) can0 650#53414D504C453031 R
(1788037034.985958) can0 356#E6140000E6000000 R
(1788037035.176069) can0 250#FA0070FE0000E600 R
(1788037035.206012) can0 363#F002F00200000000 R
(1788037035.266095) can0 355#6400640000000000 R
(1788037035.335987) can0 351#48020000FC08E001 R
(1788037035.345959) can0 35E#44593030311CFC08 R
(1788037035.386064) can0 305#0000000000000000 T
(1788037035.386100) can0 307#1234567856494300 T
(1788037035.425978) can0 359#0000000000000000 R
(1788037035.515963) can0 200#2D0D080DE600E600 R
(1788037035.606012) can0 35C#4000000000000000 R
(1788037035.645987) can0 361#2D0D080DE600E600 R
(1788037035.685980) can0 600#53414D504C453030 R
(1788037035.766036) can0 150#17020000E403E803 R
(1788037035.786019) can0 750#0000000000000000 R
(1788037035.796028) can0 364#0101000001000000 R
(1788037035.806039) can0 400#0000000000001200 R
(1788037035.896058) can0 110#0000000000000021 R
(1788037035.966027) can0 371#0000FC0800000000 R
(1788037036.006007) can0 356#E6140000E6000000 R
(1788037036.206092) can0 250#FA0070FE0000E600 R
(1788037036.246112) can0 363#F002F00200000000 R
(1788037036.276079) can0 355#6400640000000000 R
(1788037036.384587) can0 305#0000000000000000 T
(1788037036.384636) can0 307#1234567856494300 T
(1788037036.396019) can0 351#48020000FC08E001 R
(1788037036.415995) can0 500#F002AA56312E3046 R
(1788037036.426013) can0 359#0000000000000000 R
(1788037036.446027) can0 35E#44593030311CFC08 R
(1788037036.536028) can0 200#2D0D080DE600E600 R
(1788037036.676028) can0 361#2D0D080DE600E600 R
(1788037036.696066) can0 35C#4000000000000000 R
(1788037036.776070) can0 150#17020000E403E803 R
(1788037036.846185) can0 364#0101000001000000 R
(1788037036.846232) can0 400#0000000000001200 R
(1788037036.896084) can0 110#0000000000000021 R
(1788037037.026071) can0 356#E6140000E6000000 R
(1788037037.036091) can0 650#53414D504C453031 R
(1788037037.046049) can0 371#0000FC0800000000 R
(1788037037.236111) can0 250#FA0070FE0000E600 R
(1788037037.286320) can0 355#6400640000000000 R
(1788037037.296067) can0 363#F002F00200000000 R
(1788037037.385297) can0 305#0000000000000000 T
(1788037037.385335) can0 307#1234567856494300 T
(1788037037.426060) can0 359#0000000000000000 R
(1788037037.466038) can0 351#48020000FC08E001 R
(1788037037.536072) can0 35E#44593030311CFC08 R
(1788037037.556048) can0 200#2C0D090DE600E600 R
(1788037037.586063) can0 700#02001A0000000000 R
(1788037037.706160) can0 361#2C0D090DE600E600 R
(1788037037.776115) can0 35C#4000000000000000 R
(1788037037.786115) can0 150#17020000E403E803 R
(1788037037.806093) can0 600#53414D504C453030 R
(1788037037.886097) can0 400#0000000000001200 R
(1788037037.896170) can0 364#0101000001000000 R
(1788037037.896205) can0 110#0000000000000021 R
(1788037038.046125) can0 356#E6140000E6000000 R
(1788037038.116088) can0 371#0000FC0800000000 R
(1788037038.266114) can0 250#FA0070FE0000E600 R
(1788037038.296220) can0 355#6400640000000000 R
(1788037038.336142) can0 363#F002F00200000000 R
(1788037038.386442) can0 305#0000000000000000 T
(1788037038.386500) can0 307#1234567856494300 T
(1788037038.426133) can0 359#0000000000000000 R
(1788037038.516109) can0 500#F002AA56312E3046 R
(1788037038.526119) can0 351#48020000FC08E001 R
(1788037038.576121) can0 200#2C0D090DE600E600 R
(1788037038.626123) can0 35E#44593030311CFC08 R
(1788037038.736203) can0 361#2C0D090DE600E600 R
(1788037038.796139) can0 150#17020000E403E803 R
(1788037038.856191) can0 35C#4000000000000000 R
(1788037038.896195) can0 110#0000000000000021 R
(1788037038.936155) can0 400#0000000000001200 R
(1788037038.946130) can0 364#0101000001000000 R
(1788037039.066122) can0 356#E6140000E6000000 R
(1788037039.156159) can0 650#53414D504C453031 R
(1788037039.186183) can0 371#0000FC0800000000 R
(1788037039.296153) can0 250#FA0070FE0000E600 R
(1788037039.306218) can0 355#6400640000000000 R
(1788037039.376167) can0 363#F002F00200000000 R
(1788037039.386345) can0 305#0000000000000000 T
(1788037039.386380) can0 307#1234567856494300 T
(1788037039.426145) can0 359#0000000000000000 R
(1788037039.586136) can0 351#48020000FC08E001 R
(1788037039.596125) can0 200#2D0D090DE600E600 R
(1788037039.716139) can0 35E#44593030311CFC08 R
(1788037039.766167) can0 361#2D0D090DE600E600 R
(1788037039.806165) can0 150#17020000E403E803 R
(1788037039.896243) can0 110#0000000000000021 R
(1788037039.906407) can0 550#2E18000033000000 R
(1788037039.936294) can0 35C#4000000000000000 R
(1788037039.936345) can0 600#53414D504C453030 R
(1788037039.976188) can0 400#0000000000001200 R
(1788037039.996208) can0 364#0101000001000000 R
(1788037040.086162) can0 356#E6140000E6000000 R
(1788037040.256303) can0 371#0000FC0800000000 R
(1788037040.316188) can0 355#6400640000000000 R
(1788037040.326208) can0 250#FA0070FE0000E600 R
(1788037040.385569) can0 305#0000000000000000 T
(1788037040.385611) can0 307#1234567856494300 T
(1788037040.416207) can0 363#F002F00200000000 R
(1788037040.426177) can0 359#0000000000000000 R
(1788037040.616177) can0 200#2C0D080DE600E600 R
(1788037040.626196) can0 500#F002AA56312E3046 R
(1788037040.646184) can0 351#48020000FC08E001 R
(1788037040.796174) can0 361#2C0D080DE600E600 R
(1788037040.816290) can0 35E#44593030311CFC08 R
(1788037040.816331) can0 150#17020000E403E803 R
(1788037040.896269) can0 110#0000000000000021 R
(1788037041.016341) can0 35C#4000000000000000 R
(1788037041.016383) can0 400#0000000000001200 R
(1788037041.046224) can0 364#0101000001000000 R
(1788037041.106288) can0 356#E6140000E6000000 R
(1788037041.146226) can0 750#0000000000000000 R
(1788037041.286252) can0 650#53414D504C453031 R
(1788037041.326223) can0 355#6400640000000000 R
(1788037041.336231) can0 371#0000FC0800000000 R
(1788037041.356211) can0 250#FA0070FE0000E600 R
(1788037041.386341) can0 305#0000000000000000 T
(1788037041.386375) can0 307#1234567856494300 T
(1788037041.426291) can0 359#0000000000000000 R
(1788037041.466214) can0 363#F002F00200000000 R
(1788037041.636235) can0 200#2C0D080DE600E600 R
(1788037041.706315) can0 351#48020000FC08E001 R
(1788037041.826287) can0 361#2C0D080DE600E600 R
(1788037041.826330) can0 150#17020000E403E803 R
(1788037041.896296) can0 110#0000000000000021 R
(1788037041.906466) can0 35E#44593030311CFC08 R
(1788037042.046276) can0 600#53414D504C453030 R
(1788037042.056277) can0 400#0000000000001200 R
(1788037042.096255) can0 364#0101000001000000 R
(1788037042.106325) can0 35C#4000000000000000 R
(1788037042.126231) can0 356#E6140000E6000000 R
(1788037042.336327) can0 355#6400640000000000 R
(1788037042.386321) can0 250#FA0070FE0000E600 R
(1788037042.386354) can0 305#0000000000000000 T
(1788037042.386674) can0 307#1234567856494300 T
(1788037042.406342) can0 371#0000FC0800000000 R
(1788037042.426398) can0 359#0000000000000000 R
(1788037042.506362) can0 363#F002F00200000000 R
(1788037042.656301) can0 200#2C0D080DE600E600 R
(1788037042.726270) can0 500#F002AA56312E3046 R
(1788037042.766275) can0 351#48020000FC08E001 R
(1788037042.836281) can0 150#17020000E403E803 R
(1788037042.856262) can0 361#2C0D080DE600E600 R
(1788037042.896340) can0 110#0000000000000021 R
(1788037042.946313) can0 700#02001A0000000000 R
(1788037042.996268) can0 35E#44593030311CFC08 R
(1788037043.096344) can0 400#0000000000001200 R
(1788037043.146273) can0 356#E6140000E6000000 R
(1788037043.156305) can0 364#0101000001000000 R
(1788037043.196353) can0 35C#4000000000000000 R
(1788037043.346330) can0 355#6400640000000000 R
(1788037043.386481) can0 305#0000000000000000 T
(1788037043.386514) can0 307#1234567856494300 T
(1788037043.406396) can0 650#53414D504C453031 R
(1788037043.416283) can0 250#FA0070FE0000E600 R
(1788037043.426292) can0 359#0000000000000000 R
(1788037043.486290) can0 371#0000FC0800000000 R
(1788037043.546287) can0 363#F002F00200000000 R
(1788037043.676330) can0 200#2C0D080DE600E600 R
(1788037043.826307) can0 351#48020000FC08E001 R
(1788037043.846353) can0 150#17020000E403E803 R
(1788037043.886304) can0 361#2C0D080DE600E600 R
(1788037043.896361) can0 110#0000000000000021 R
(1788037044.086343) can0 35E#44593030311CFC08 R
(1788037044.136367) can0 400#0000000000001200 R
(1788037044.166404) can0 356#E6140000E6000000 R
(1788037044.166456) can0 600#53414D504C453030 R
(1788037044.206392) can0 364#0101000001000000 R
(1788037044.276533) can0 35C#4000000000000000 R
(1788037044.356371) can0 355#6400640000000000 R
(1788037044.386563) can0 305#0000000000000000 T
(1788037044.386599) can0 307#1234567856494300 T
(1788037044.426353) can0 359#0000000000000000 R
(1788037044.446359) can0 250#FA0070FE0000E600 R
(1788037044.556420) can0 371#0000FC0800000000 R
(1788037044.586359) can0 363#F002F00200000000 R
(1788037044.696360) can0 200#2C0D080DE600E600 R
(1788037044.826353) can0 500#F002AA56312E3046 R
(1788037044.856376) can0 150#17020000E403E803 R
(1788037044.886358) can0 351#48020000FC08E001 R
(1788037044.896405) can0 110#0000000000000021 R
(1788037044.916321) can0 361#2C0D080DE600E600 R
(1788037045.176516) can0 35E#44593030311CFC08 R
(1788037045.176570) can0 400#0000000000001200 R
(1788037045.186458) can0 356#E6140000E6000000 R
(1788037045.196574) can0 550#2E18000033000000 R
(1788037045.257448) can0 364#0101000001000000 R
(1788037045.356414) can0 35C#4000000000000000 R
(1788037045.366361) can0 355#6400640000000000 R
(1788037045.386478) can0 305#0000000000000000 T
(1788037045.386510) can0 307#1234567856494300 T
(1788037045.426390) can0 359#0000000000000000 R
(1788037045.476373) can0 250#FA0070FE0000E600 R
(1788037045.546377) can0 650#53414D504C453031 R
(1788037045.626377) can0 363#F002F00200000000 R
(1788037045.636388) can0 371#0000FC0800000000 R
(1788037045.716444) can0 200#2C0D080DE600E600 R
(1788037045.866381) can0 150#17020000E403E803 R
(1788037045.896459) can0 110#0000000000000021 R
(1788037045.946394) can0 361#2C0D080DE600E600 R
(1788037045.956410) can0 351#48020000FC08E001 R
(1788037046.206458) can0 356#E6140000E6000000 R
(1788037046.216549) can0 400#0000000000001200 R
(1788037046.276534) can0 35E#44593030311CFC08 R
(1788037046.286458) can0 600#53414D504C453030 R
(1788037046.306532) can0 364#0101000001000000 R
(1788037046.376399) can0 355#6400640000000000 R
(1788037046.386536) can0 305#0000000000000000 T
(1788037046.386568) can0 307#1234567856494300 T
(1788037046.426422) can0 359#0000000000000000 R
(1788037046.456500) can0 35C#4000000000000000 R
(1788037046.496466) can0 750#0000000000000000 R
(1788037046.507417) can0 250#FA0070FE0000E600 R
(1788037046.666457) can0 363#F002F00200000000 R
(1788037046.706653) can0 371#0000FC0800000000 R
(1788037046.736459) can0 200#2C0D080DE600E600 R
(1788037046.876426) can0 150#17020000E403E803 R
(1788037046.896521) can0 110#0000000000000021 R
(1788037046.946433) can0 500#F002AA56312E3046 R
(1788037046.976431) can0 361#2C0D080DE600E600 R
(1788037047.016541) can0 351#48020000FC08E001 R
(1788037047.226618) can0 356#E6140000E6000000 R
(1788037047.256626) can0 400#0000000000001200 R
(1788037047.356468) can0 364#0101000001000000 R
(1788037047.376460) can0 35E#44593030311CFC08 R
(1788037047.386511) can0 355#6400640000000000 R
(1788037047.386545) can0 305#0000000000000000 T
(1788037047.386888) can0 307#1234567856494300 T
(1788037047.426468) can0 359#0000000000000000 R
(1788037047.536595) can0 35C#4000000000000000 R
(1788037047.536641) can0 250#FA0070FE0000E600 R
(1788037047.666495) can0 650#53414D504C453031 R
(1788037047.706721) can0 363#F002F00200000000 R
(1788037047.756507) can0 200#2D0D080DE600E600 R
(1788037047.776472) can0 371#0000FC0800000000 R
(1788037047.886474) can0 150#17020000E403E803 R
(1788037047.896529) can0 110#0000000000000021 R
(1788037048.006474) can0 361#2D0D080DE600E600 R
(1788037048.076511) can0 351#48020000FC08E001 R
(1788037048.246650) can0 356#E6140000E6000000 R
(1788037048.276604) can0 700#02001A0000000000 R
(1788037048.296598) can0 400#0000000000001200 R
(1788037048.385922) can0 305#0000000000000000 T
(1788037048.385967) can0 307#1234567856494300 T
(1788037048.396611) can0 355#6400640000000000 R
(1788037048.396647) can0 600#53414D504C453030 R
(1788037048.416510) can0 364#0101000001000000 R
(1788037048.426500) can0 359#0000000000000000 R
(1788037048.486524) can0 35E#44593030311CFC08 R
(1788037048.566509) can0 250#FA0070FE0000E600 R
(1788037048.616505) can0 35C#4000000000000000 R
(1788037048.746525) can0 363#F002F00200000000 R
(1788037048.776525) can0 200#2D0D080DE600E600 R
(1788037048.846550) can0 371#0000FC0800000000 R
(1788037048.896601) can0 110#0000000000000021 R
(1788037048.906770) can0 150#17020000E403E803 R
(1788037049.036509) can0 361#2D0D080DE600E600 R
(1788037049.046505) can0 500#F002AA56312E3046 R
(1788037049.136537) can0 351#48020000FC08E001 R
(1788037049.266649) can0 356#E6140000E6000000 R
(1788037049.336594) can0 400#0000000000001200 R
(1788037049.386823) can0 305#0000000000000000 T
(1788037049.386861) can0 307#1234567856494300 T
(1788037049.406630) can0 355#6400640000000000 R
(1788037049.426553) can0 359#0000000000000000 R
(1788037049.476554) can0 364#0101000001000000 R
(1788037049.576521) can0 35E#44593030311CFC08 R
(1788037049.596539) can0 250#FA0070FE0000E600 R
(1788037049.696559) can0 35C#4000000000000000 R
(1788037049.786703) can0 363#F002F00200000000 R
(1788037049.786758) can0 650#53414D504C453031 R
(1788037049.796562) can0 200#2D0D080DE600E600 R
(1788037049.896635) can0 110#0000000000000021 R
(1788037049.916706) can0 371#0000FC0800000000 R
(1788037049.916745) can0 150#17020000E403E803 R
(1788037050.066626) can0 361#2D0D080DE600E600 R
(1788037050.196698) can0 351#48020000FC08E001 R
(1788037050.286709) can0 356#E6140000E6000000 R
(1788037050.376713) can0 400#0000000000001200 R
(1788037050.386909) can0 305#0000000000000000 T
(1788037050.386943) can0 307#1234567856494300 T
(1788037050.416599) can0 355#6400640000000000 R
(1788037050.426605) can0 359#0000000000000000 R
(1788037050.466626) can0 550#2E18000033000000 R
(1788037050.516624) can0 600#53414D504C453030 R
(1788037050.526710) can0 364#0101000001000000 R
(1788037050.626684) can0 250#FA0070FE0000E600 R
(1788037050.666665) can0 35E#44593030311CFC08 R
(1788037050.776713) can0 35C#4000000000000000 R
(1788037050.816751) can0 200#2D0D080DE600E600 R
(1788037050.826690) can0 363#F002F00200000000 R
(1788037050.896730) can0 110#0000000000000021 R
(1788037050.926634) can0 150#17020000E403E803 R
(1788037050.986675) can0 371#0000FC0800000000 R
(1788037051.096652) can0 361#2D0D080DE600E600 R
(1788037051.146620) can0 500#F002AA56312E3046 R
(1788037051.256735) can0 351#48020000FC08E001 R
(1788037051.306966) can0 356#E6140000E6000000 R
(1788037051.389072) can0 305#0000000000000000 T
(1788037051.389112) can0 307#1234567856494300 T
(1788037051.416685) can0 400#0000000000001200 R
(1788037051.426660) can0 359#0000000000000000 R
(1788037051.436638) can0 355#6400640000000000 R
(1788037051.576670) can0 364#0101000001000000 R
(1788037051.656701) can0 250#FA0070FE0000E600 R
(1788037051.756663) can0 35E#44593030311CFC08 R
(1788037051.836704) can0 200#2C0D080DE600E600 R
(1788037051.856787) can0 35C#4000000000000000 R
(1788037051.856833) can0 750#0000000000000000 R
(1788037051.866667) can0 363#F002F00200000000 R
(1788037051.896756) can0 110#0000000000000021 R
(1788037051.936673) can0 150#17020000E403E803 R
(1788037051.946674) can0 650#53414D504C453031 R
(1788037052.056744) can0 371#0000FC0800000000 R
(1788037052.126663) can0 361#2C0D080DE600E600 R
(1788037052.316762) can0 351#48020000FC08E001 R
(1788037052.326720) can0 356#E6140000E6000000 R
(1788037052.386019) can0 305#0000000000000000 T
(1788037052.386056) can0 307#1234567856494300 T
(1788037052.426693) can0 359#0000000000000000 R
(1788037052.446698) can0 355#6400640000000000 R
(1788037052.456718) can0 400#0000000000001200 R
(1788037052.626786) can0 364#0101000001000000 R
(1788037052.626847) can0 600#53414D504C453030 R
(1788037052.686723) can0 250#FA0070FE0000E600 R
(1788037052.846730) can0 35E#44593030311CFC08 R
(1788037052.856721) can0 200#2D0D080DE600E600 R
(1788037052.896772) can0 110#0000000000000021 R
(1788037052.906952) can0 363#F002F00200000000 R
(1788037052.946823) can0 35C#4000000000000000 R
(1788037052.946865) can0 150#17020000E403E803 R
(1788037053.126719) can0 371#0000FC0800000000 R
(1788037053.156730) can0 361#2C0D080DE600E600 R
(1788037053.246798) can0 500#F002AA56312E3046 R
(1788037053.346744) can0 356#E6140000E6000000 R
(1788037053.386764) can0 351#48020000FC08E001 R
(1788037053.386797) can0 305#0000000000000000 T
(1788037053.387153) can0 307#1234567856494300 T
(1788037053.426727) can0 359#0000000000000000 R
(1788037053.456715) can0 355#6400640000000000 R
(1788037053.496749) can0 400#0000000000001200 R
(1788037053.626749) can0 700#02001A0000000000 R
(1788037053.676774) can0 364#0101000001000000 R
(1788037053.716755) can0 250#FA0070FE0000E600 R
(1788037053.876739) can0 200#2C0D090DE600E600 R
(1788037053.896826) can0 110#0000000000000021 R
(1788037053.936741) can0 35E#44593030311CFC08 R
(1788037053.946726) can0 363#F002F00200000000 R
(1788037053.956754) can0 150#17020000E403E803 R
(1788037054.026750) can0 35C#4000000000000000 R
(1788037054.066768) can0 650#53414D504C453031 R
(1788037054.186931) can0 361#2D0D090DE600E600 R
(1788037054.206797) can0 371#0000FC0800000000 R
(1788037054.366741) can0 356#E6140000E6000000 R
(1788037054.386866) can0 305#0000000000000000 T
(1788037054.386900) can0 307#1234567856494300 T
(1788037054.426800) can0 359#0000000000000000 R
(1788037054.456773) can0 351#48020000FC08E001 R
(1788037054.466743) can0 355#6400640000000000 R
(1788037054.536893) can0 400#0000000000001200 R
(1788037054.726772) can0 364#0101000001000000 R
(1788037054.736754) can0 600#53414D504C453030 R
(1788037054.746732) can0 250#FA0070FE0000E600 R
(1788037054.896833) can0 110#0000000000000021 R
(1788037054.907005) can0 200#2C0D090DE600E600 R
(1788037054.966754) can0 150#17020000E403E803 R
(1788037054.986735) can0 363#F002F00200000000 R
(1788037055.036762) can0 35E#44593030311CFC08 R
(1788037055.106854) can0 35C#4000000000000000 R
(1788037055.216781) can0 361#2C0D090DE600E600 R
(1788037055.276845) can0 371#0000FC0800000000 R
(1788037055.346792) can0 500#F002AA56312E3046 R
(1788037055.386856) can0 356#E6140000E6000000 R
(1788037055.386890) can0 305#0000000000000000 T
(1788037055.387206) can0 307#1234567856494300 T
(1788037055.426801) can0 359#0000000000000000 R
(1788037055.476778) can0 355#6400640000000000 R
(1788037055.526783) can0 351#48020000FC08E001 R
(1788037055.576819) can0 400#0000000000001200 R
(1788037055.746803) can0 550#2E18000033000000 R
(1788037055.776920) can0 364#0101000001000000 R
(1788037055.776958) can0 250#FA0070FE0000E600 R
(1788037055.896879) can0 110#0000000000000021 R
(1788037055.926826) can0 200#2C0D090DE600E600 R
(1788037055.976805) can0 150#17020000E403E803 R
(1788037056.026831) can0 363#F002F00200000000 R
(1788037056.126823) can0 35E#44593030311CFC08 R
(1788037056.186913) can0 35C#4000000000000000 R
(1788037056.196860) can0 650#53414D504C453031 R
(1788037056.246927) can0 361#2C0D090DE600E600 R
(1788037056.346857) can0 371#0000FC0800000000 R
(1788037056.386971) can0 305#0000000000000000 T
(1788037056.387011) can0 307#1234567856494300 T
(1788037056.406888) can0 356#E6140000E6000000 R
(1788037056.426810) can0 359#0000000000000000 R
(1788037056.486807) can0 355#6400640000000000 R
(1788037056.586834) can0 351#48020000FC08E001 R
(1788037056.616840) can0 400#0000000000001200 R
(1788037056.806934) can0 250#FA0070FE0000E600 R
(1788037056.826850) can0 364#0101000001000000 R
(1788037056.866834) can0 600#53414D504C453030 R
(1788037056.896903) can0 110#0000000000000021 R
(1788037056.946832) can0 200#2C0D080DE600E600 R
(1788037056.986835) can0 150#17020000E403E803 R
(1788037057.066878) can0 363#F002F00200000000 R
(1788037057.216869) can0 35E#44593030311CFC08 R
(1788037057.226873) can0 750#0000000000000000 R
(1788037057.266950) can0 35C#4000000000000000 R
(1788037057.276923) can0 361#2C0D090DE600E600 R
(1788037057.385398) can0 305#0000000000000000 T
(1788037057.385438) can0 307#1234567856494300 T
(1788037057.416861) can0 371#0000FC0800000000 R
(1788037057.426849) can0 359#0000000000000000 R
(1788037057.436848) can0 356#E6140000E6000000 R
(1788037057.446842) can0 500#F002AA56312E3046 R
(1788037057.496875) can0 355#6400640000000000 R
(1788037057.646867) can0 351#48020000FC08E001 R
(1788037057.656919) can0 400#0000000000001200 R
(1788037057.836917) can0 250#FA0070FE0000E600 R
(1788037057.876878) can0 364#0101000001000000 R
(1788037057.896939) can0 110#0000000000000021 R
(1788037057.966893) can0 200#2C0D080DE600E600 R
(1788037057.996900) can0 150#17020000E403E803 R
(1788037058.106955) can0 363#F002F00200000000 R
(1788037058.307118) can0 361#2C0D080DE600E600 R
(1788037058.317004) can0 35E#44593030311CFC08 R
(1788037058.317074) can0 650#53414D504C453031 R
(1788037058.356917) can0 35C#4000000000000000 R
(1788037058.387011) can0 305#0000000000000000 T
(1788037058.387046) can0 307#1234567856494300 T
(1788037058.426929) can0 359#0000000000000000 R
(1788037058.456889) can0 356#E6140000E6000000 R
(1788037058.506982) can0 355#6400640000000000 R
(1788037058.516903) can0 371#0000FC0800000000 R
(1788037058.696952) can0 400#0000000000001200 R
(1788037058.706980) can0 351#48020000FC08E001 R
(1788037058.866916) can0 250#FA0070FE0000E600 R
(1788037058.896984) can0 110#0000000000000021 R
(1788037058.926925) can0 364#0101000001000000 R
(1788037058.976916) can0 700#02001A0000000000 R
(1788037058.986901) can0 200#2C0D080DE600E600 R
(1788037058.996888) can0 600#53414D504C453030 R
(1788037059.006909) can0 150#17020000E403E803 R
(1788037059.146925) can0 363#F002F00200000000 R
(1788037059.336960) can0 361#2C0D080DE600E600 R
(1788037059.387108) can0 305#0000000000000000 T
(1788037059.387146) can0 307#1234567856494300 T
(1788037059.407041) can0 35E#44593030311CFC08 R
(1788037059.426942) can0 359#0000000000000000 R
(1788037059.446938) can0 35C#4000000000000000 R
(1788037059.476932) can0 356#E6140000E6000000 R
(1788037059.516910) can0 355#6400640000000000 R
(1788037059.546937) can0 500#F002AA56312E3046 R
(1788037059.586934) can0 371#0000FC0800000000 R
(1788037059.737110) can0 400#0000000000001200 R
(1788037059.766967) can0 351#48020000FC08E001 R
(1788037059.897012) can0 110#0000000000000021 R
(1788037059.907224) can0 250#FA0070FE0000E600 R
(1788037059.976968) can0 364#0101000001000000 R
(1788037060.006968) can0 200#2D0D080DE600E600 R
(1788037060.016961) can0 150#17020000E403E803 R
(1788037060.186999) can0 363#F002F00200000000 R
(1788037060.366948) can0 361#2C0D080DE600E600 R
(1788037060.387033) can0 305#0000000000000000 T
(1788037060.387067) can0 307#1234567856494300 T
(1788037060.427003) can0 359#0000000000000000 R
(1788037060.436959) can0 650#53414D504C453031 R
(1788037060.496946) can0 356#E6140000E6000000 R
(1788037060.516953) can0 35E#44593030311CFC08 R
(1788037060.526973) can0 355#6400640000000000 R
(1788037060.546990) can0 35C#4000000000000000 R
(1788037060.657044) can0 371#0000FC0800000000 R
(1788037060.777029) can0 400#0000000000001200 R
(1788037060.827020) can0 351#48020000FC08E001 R
(1788037060.897062) can0 110#0000000000000021 R
(1788037060.936994) can0 250#FA0070FE0000E600 R
(1788037061.027142) can0 364#0101000001000000 R
(1788037061.027187) can0 150#17020000E403E803 R
(1788037061.036996) can0 200#2D0D080DE600E600 R
(1788037061.056991) can0 550#2E18000033000000 R
(1788037061.127003) can0 600#53414D504C453030 R
(1788037061.227051) can0 363#F002F00200000000 R
(1788037061.384928) can0 305#0000000000000000 T
(1788037061.384969) can0 307#1234567856494300 T
(1788037061.397006) can0 361#2D0D080DE600E600 R
(1788037061.427008) can0 359#0000000000000000 R
(1788037061.517000) can0 356#E6140000E6000000 R
(1788037061.537024) can0 355#6400640000000000 R
(1788037061.616985) can0 35E#44593030311CFC08 R
(1788037061.627043) can0 35C#4000000000000000 R
(1788037061.647017) can0 500#F002AA56312E3046 R
(1788037061.727086) can0 371#0000FC0800000000 R
(1788037061.817048) can0 400#0000000000001200 R
(1788037061.887030) can0 351#48020000FC08E001 R
(1788037061.897108) can0 110#0000000000000021 R
(1788037061.967031) can0 250#FA0070FE0000E600 R
(1788037062.037048) can0 150#17020000E403E803 R
(1788037062.057052) can0 200#2C0D080DE600E600 R
(1788037062.077057) can0 364#0101000001000000 R
(1788037062.267086) can0 363#F002F00200000000 R
(1788037062.390076) can0 305#0000000000000000 T
(1788037062.390124) can0 307#1234567856494300 T
(1788037062.427072) can0 359#0000000000000000 R
(1788037062.437027) can0 361#2C0D080DE600E600 R
(1788037062.537082) can0 356#E6140000E6000000 R
(1788037062.547034) can0 355#6400640000000000 R
(1788037062.567058) can0 650#53414D504C453031 R
(1788037062.577055) can0 750#0000000000000000 R
(1788037062.707165) can0 35C#4000000000000000 R
(1788037062.717049) can0 35E#44593030311CFC08 R
(1788037062.797079) can0 371#0000FC0800000000 R
(1788037062.857088) can0 400#0000000000001200 R
(1788037062.897390) can0 110#0000000000000021 R
(1788037062.947106) can0 351#48020000FC08E001 R
(1788037062.997084) can0 250#FA0070FE0000E600 R
(1788037063.047095) can0 150#17020000E403E803 R
(1788037063.077109) can0 200#2C0D080DE600E600 R
(1788037063.127099) can0 364#0101000001000000 R
(1788037063.237101) can0 600#53414D504C453030 R
(1788037063.307204) can0 363#F002F00200000000 R
(1788037063.386471) can0 305#0000000000000000 T
(1788037063.386513) can0 307#1234567856494300 T
(1788037063.427131) can0 359#0000000000000000 R
(1788037063.467083) can0 361#2C0D080DE600E600 R
(1788037063.557094) can0 355#6400640000000000 R
(1788037063.567086) can0 356#E6140000E6000000 R
(1788037063.747133) can0 500#F002AA56312E3046 R
(1788037063.787114) can0 35C#4000000000000000 R
(1788037063.807082) can0 35E#44593030311CFC08 R
(1788037063.867106) can0 371#0000FC0800000000 R
(1788037063.897164) can0 110#0000000000000021 R
(1788037063.907383) can0 400#0000000000001200 R
(1788037064.007161) can0 351#48020000FC08E001 R
(1788037064.027130) can0 250#FA0070FE0000E600 R
(1788037064.057111) can0 150#17020000E403E803 R
(1788037064.097127) can0 200#2C0D090DE600E600 R
(1788037064.177207) can0 364#0101000001000000 R
(1788037064.337173) can0 700#02001A0000000000 R
(1788037064.347135) can0 363#F002F00200000000 R
(1788037064.387273) can0 305#0000000000000000 T
(1788037064.387310) can0 307#1234567856494300 T
(1788037064.427157) can0 359#0000000000000000 R
(1788037064.497146) can0 361#2D0D090DE600E600 R
(1788037064.567130) can0 355#6400640000000000 R
(1788037064.587148) can0 356#E6140000E6000000 R
(1788037064.687168) can0 650#53414D504C453031 R
(1788037064.867155) can0 35C#4000000000000000 R
(1788037064.897273) can0 35E#44593030311CFC08 R
(1788037064.897311) can0 110#0000000000000021 R
(1788037064.937181) can0 371#0000FC0800000000 R
(1788037064.947190) can0 400#0000000000001200 R
(1788037065.057189) can0 250#FA0070FE0000E600 R
(1788037065.067292) can0 351#48020000FC08E001 R
(1788037065.067331) can0 150#17020000E403E803 R
(1788037065.117174) can0 200#2D0D090DE600E600 R
(1788037065.227220) can0 364#0101000001000000 R
(1788037065.347197) can0 600#53414D504C453030 R
(1788037065.387243) can0 363#F002F00200000000 R
(1788037065.387280) can0 305#0000000000000000 T
(1788037065.387613) can0 307#1234567856494300 T
(1788037065.427182) can0 359#0000000000000000 R
(1788037065.527227) can0 361#2D0D090DE600E600 R
(1788037065.577166) can0 355#6400640000000000 R
(1788037065.607150) can0 356#E6140000E6000000 R
(1788037065.847223) can0 500#F002AA56312E3046 R
(1788037065.897265) can0 110#0000000000000021 R
(1788037065.947206) can0 35C#4000000000000000 R
(1788037065.987310) can0 35E#44593030311CFC08 R
(1788037065.987350) can0 400#0000000000001200 R
(1788037066.007193) can0 371#0000FC0800000000 R
(1788037066.077336) can0 150#17020000E403E803 R
(1788037066.097244) can0 250#FA0070FE0000E600 R
(1788037066.127229) can0 351#48020000FC08E001 R
(1788037066.137192) can0 200#2D0D090DE600E600 R
(1788037066.277323) can0 364#0101000001000000 R
(1788037066.337241) can0 550#2E18000033000000 R
(1788037066.387303) can0 305#0000000000000000 T
(1788037066.387343) can0 307#1234567856494300 T
(1788037066.427215) can0 359#0000000000000000 R
(1788037066.437198) can0 363#F002F00200000000 R
(1788037066.557422) can0 361#2D0D090DE600E600 R
(1788037066.587207) can0 355#6400640000000000 R
(1788037066.627515) can0 356#E6140000E6000000 R
(1788037066.817230) can0 650#53414D504C453031 R
(1788037066.897309) can0 110#0000000000000021 R
(1788037067.027365) can0 35C#4000000000000000 R
(1788037067.027408) can0 400#0000000000001200 R
(1788037067.077264) can0 371#0000FC0800000000 R
(1788037067.087367) can0 35E#44593030311CFC08 R
(1788037067.087407) can0 150#17020000E403E803 R
(1788037067.127282) can0 250#FA0070FE0000E600 R
(1788037067.157232) can0 200#2D0D090DE600E600 R
(1788037067.187284) can0 351#48020000FC08E001 R
(1788037067.327275) can0 364#0101000001000000 R
(1788037067.386593) can0 305#0000000000000000 T
(1788037067.386634) can0 307#1234567856494300 T
(1788037067.427267) can0 359#0000000000000000 R
(1788037067.467254) can0 600#53414D504C453030 R
(1788037067.477237) can0 363#F002F00200000000 R
(1788037067.587259) can0 361#2D0D080DE600E600 R
(1788037067.597231) can0 355#6400640000000000 R
(1788037067.647269) can0 356#E6140000E6000000 R
(1788037067.897330) can0 110#0000000000000021 R
(1788037067.927315) can0 750#0000000000000000 R
(1788037067.957270) can0 500#F002AA56312E3046 R
(1788037068.067314) can0 400#0000000000001200 R
(1788037068.097314) can0 150#17020000E403E803 R
(1788037068.107370) can0 35C#4000000000000000 R
(1788037068.147278) can0 371#0000FC0800000000 R
(1788037068.157430) can0 250#FA0070FE0000E600 R
(1788037068.177353) can0 35E#44593030311CFC08 R
(1788037068.177412) can0 200#2D0D080DE600E600 R
(1788037068.247357) can0 351#48020000FC08E001 R
(1788037068.377329) can0 364#0101000001000000 R
(1788037068.387464) can0 305#0000000000000000 T
(1788037068.387500) can0 307#1234567856494300 T
(1788037068.427311) can0 359#0000000000000000 R
(1788037068.517321) can0 363#F002F00200000000 R
(1788037068.607310) can0 355#6400640000000000 R
(1788037068.627301) can0 361#2D0D080DE600E600 R
(1788037068.667537) can0 356#E6140000E6000000 R
(1788037068.897406) can0 110#0000000000000021 R
(1788037068.947338) can0 650#53414D504C453031 R
(1788037069.107426) can0 150#17020000E403E803 R
(1788037069.117371) can0 400#0000000000001200 R
(1788037069.187426) can0 35C#4000000000000000 R
(1788037069.187472) can0 250#FA0070FE0000E600 R
(1788037069.197363) can0 200#2D0D080DE600E600 R
(1788037069.217397) can0 371#0000FC0800000000 R
(1788037069.267399) can0 35E#44593030311CFC08 R
(1788037069.307538) can0 351#48020000FC08E001 R
(1788037069.387038) can0 305#0000000000000000 T
(1788037069.387082) can0 307#1234567856494300 T
(1788037069.427341) can0 359#0000000000000000 R
(1788037069.437349) can0 364#0101000001000000 R
(1788037069.557324) can0 363#F002F00200000000 R
(1788037069.577337) can0 600#53414D504C453030 R
(1788037069.617327) can0 355#6400640000000000 R
(1788037069.657492) can0 361#2D0D080DE600E600 R
(1788037069.677407) can0 700#02001A0000000000 R
(1788037069.687356) can0 356#E6140000E6000000 R
(1788037069.897421) can0 110#0000000000000021 R
(1788037070.057394) can0 500#F002AA56312E3046 R
(1788037070.117394) can0 150#17020000E403E803 R
(1788037070.157634) can0 400#0000000000001200 R
(1788037070.217520) can0 200#2D0D080DE600E600 R
(1788037070.227408) can0 250#FA0070FE0000E600 R
(1788037070.267496) can0 35C#4000000000000000 R
(1788037070.287457) can0 371#0000FC0800000000 R
(1788037070.357399) can0 35E#44593030311CFC08 R
(1788037070.367394) can0 351#48020000FC08E001 R
(1788037070.387515) can0 305#0000000000000000 T
(1788037070.387552) can0 307#1234567856494300 T
(1788037070.427408) can0 359#0000000000000000 R
(1788037070.487424) can0 364#0101000001000000 R
(1788037070.597422) can0 363#F002F00200000000 R
(1788037070.627419) can0 355#6400640000000000 R
(1788037070.687510) can0 361#2D0D080DE600E600 R
(1788037070.707542) can0 356#E6140000E6000000 R
(1788037070.897516) can0 110#0000000000000021 R
(1788037071.067432) can0 650#53414D504C453031 R
(1788037071.127464) can0 150#17020000E403E803 R
(1788037071.197574) can0 400#0000000000001200 R
(1788037071.237468) can0 200#2C0D080DE600E600 R
(1788037071.257502) can0 250#FA0070FE0000E600 R
(1788037071.347458) can0 35C#4000000000000000 R
(1788037071.357434) can0 371#0000FC0800000000 R
(1788037071.387530) can0 305#0000000000000000 T
(1788037071.387567) can0 307#1234567856494300 T
(1788037071.427473) can0 359#0000000000000000 R
(1788037071.437422) can0 351#48020000FC08E001 R
(1788037071.467437) can0 35E#44593030311CFC08 R
(1788037071.537472) can0 364#0101000001000000 R
(1788037071.607445) can0 550#2E18000033000000 R
(1788037071.637476) can0 355#6400640000000000 R
(1788037071.647485) can0 363#F002F00200000000 R
(1788037071.697491) can0 600#53414D504C453030 R
(1788037071.717458) can0 361#2C0D080DE600E600 R
(1788037071.727445) can0 356#E6140000E6000000 R
(1788037071.897530) can0 110#0000000000000021 R
(1788037072.137504) can0 150#17020000E403E803 R
(1788037072.167496) can0 500#F002AA56312E3046 R
(1788037072.237542) can0 400#0000000000001200 R
(1788037072.257564) can0 200#2D0D080DE600E600 R
(1788037072.287578) can0 250#FA0070FE0000E600 R
(1788037072.386938) can0 305#0000000000000000 T
(1788037072.386989) can0 307#1234567856494300 T
(1788037072.427505) can0 359#0000000000000000 R
(1788037072.437489) can0 371#0000FC0800000000 R
(1788037072.447455) can0 35C#4000000000000000 R
(1788037072.497507) can0 351#48020000FC08E001 R
(1788037072.557489) can0 35E#44593030311CFC08 R
(1788037072.587499) can0 364#0101000001000000 R
(1788037072.647535) can0 355#6400640000000000 R
(1788037072.687524) can0 363#F002F00200000000 R
(1788037072.747502) can0 356#E6140000E6000000 R
(1788037072.757484) can0 361#2D0D080DE600E600 R
(1788037072.897573) can0 110#0000000000000021 R
(1788037073.147571) can0 150#17020000E403E803 R
(1788037073.207656) can0 650#53414D504C453031 R
(1788037073.277607) can0 200#2D0D080DE600E600 R
(1788037073.287702) can0 400#0000000000001200 R
(1788037073.307726) can0 750#0000000000000000 R
(1788037073.317518) can0 250#FA0070FE0000E600 R
(1788037073.386924) can0 305#0000000000000000 T
(1788037073.386968) can0 307#1234567856494300 T
(1788037073.427528) can0 359#0000000000000000 R
(1788037073.507620) can0 371#0000FC0800000000 R
(1788037073.527545) can0 35C#4000000000000000 R
(1788037073.557510) can0 351#48020000FC08E001 R
(1788037073.637543) can0 364#0101000001000000 R
(1788037073.657695) can0 355#6400640000000000 R
(1788037073.667568) can0 35E#44593030311CFC08 R
(1788037073.727588) can0 363#F002F00200000000 R
(1788037073.767521) can0 356#E6140000E6000000 R
(1788037073.787509) can0 361#2D0D080DE600E600 R
(1788037073.807538) can0 600#53414D504C453030 R
(1788037073.897621) can0 110#0000000000000021 R
(1788037074.157622) can0 150#17020000E403E803 R
(1788037074.267652) can0 500#F002AA56312E3046 R
(1788037074.297782) can0 200#2C0D080DE600E600 R
(1788037074.327673) can0 400#0000000000001200 R
(1788037074.347571) can0 250#FA0070FE0000E600 R
(1788037074.387685) can0 305#0000000000000000 T
